Time Stamp,ID,Extended,Dir,Bus,LEN,D1,D2,D3,D4,D5,D6,D7,D8
18300377,00000461,false,Rx,0,8,8B,0A,1B,0B,BB,13,0B,14,
18301247,00000471,false,Rx,0,8,8B,11,0B,11,0B,10,0B,12,
18302251,00000300,false,Rx,0,8,00,00,00,00,00,00,00,00,
18303225,000007E1,false,Rx,0,8,CC,A5,00,00,00,00,00,B5,
18304007,00000310,false,Rx,0,5,00,00,00,00,00,00,00,00,
18310636,00000463,false,Rx,0,8,8B,0E,1B,10,BB,1B,0B,1D,
18311555,00000473,false,Rx,0,8,8B,1C,0B,1E,0B,1C,0B,1A,
18312541,000007E3,false,Rx,0,8,C0,00,00,00,00,00,00,06,
18315454,00000464,false,Rx,0,8,8C,C5,1C,C7,BC,D5,0C,D4,
18316353,00000474,false,Rx,0,8,8C,D3,0C,D5,0C,D4,0C,D3,
18317317,000007E4,false,Rx,0,8,CC,B5,00,00,00,00,00,C8,
18325694,00000466,false,Rx,0,8,8C,6E,1C,6D,BC,78,0C,7A,
18326604,00000476,false,Rx,0,8,8C,7A,0C,78,0C,77,0C,76,
18327598,000007E6,false,Rx,0,8,C0,00,00,00,00,00,00,09,
18350197,00000468,false,Rx,0,8,8C,A3,1C,A4,BC,AB,0C,AA,
18351097,00000478,false,Rx,0,8,8C,A9,0C,A9,0C,AA,0C,AB,
18352061,000007E8,false,Rx,0,8,CC,92,00,00,00,00,00,A9,
18360844,0000046A,false,Rx,0,8,8C,B2,1C,B2,BC,B8,0C,B8,
18361744,0000047A,false,Rx,0,8,8C,B8,0C,B8,0C,B7,0C,B7,
18362738,000007EA,false,Rx,0,8,C0,00,00,00,00,00,00,0D,
18369707,0000046C,false,Rx,0,6,8B,10,1B,12,BB,1B,00,00,
18370495,0000047C,false,Rx,0,6,8B,1B,0B,1C,0B,1B,00,00,
18371490,000007EC,false,Rx,0,8,CC,BB,00,00,00,00,00,D6,
18373851,0000046D,false,Rx,0,6,8C,99,1C,98,BC,A1,00,00,
18374659,0000047D,false,Rx,0,6,8C,A0,0C,9F,0C,A0,00,00,
18375664,000007ED,false,Rx,0,8,CC,C3,00,00,00,00,00,DF,
18379319,0000046E,false,Rx,0,6,8C,A1,1C,A2,BC,A8,00,00,
18380107,0000047E,false,Rx,0,6,8C,A9,0C,A9,0C,A8,00,00,
18381132,000007EE,false,Rx,0,8,C0,00,00,00,00,00,00,11,
18396134,00000200,false,Rx,0,3,52,59,00,00,00,00,00,00,
18493963,00000460,false,Rx,0,6,8B,0E,6B,0D,FB,15,00,00,
18494751,00000470,false,Rx,0,6,8B,17,0B,16,0B,17,00,00,
18495756,000007E0,false,Rx,0,8,4C,B0,00,00,00,00,00,BD,
18500380,00000461,false,Rx,0,8,8B,0B,6B,0B,FB,12,0B,12,
18501280,00000471,false,Rx,0,8,8B,10,0B,11,0B,12,0B,14,
18502296,00000300,false,Rx,0,8,00,00,00,00,00,00,00,00,
18503258,000007E1,false,Rx,0,8,4C,A5,00,00,00,00,00,B3,
18504041,00000310,false,Rx,0,5,00,00,00,00,00,00,00,00,
18510671,00000463,false,Rx,0,8,8B,0F,6B,11,FB,1C,0B,1A,
18511581,00000473,false,Rx,0,8,8B,1C,0B,1C,0B,1A,0B,1C,
18512575,000007E3,false,Rx,0,8,40,00,00,00,00,00,00,04,
18515479,00000464,false,Rx,0,8,8C,C5,6C,C6,FC,D5,0C,D4,
18516389,00000474,false,Rx,0,8,8C,D4,0C,D5,0C,D4,0C,D3,
18517374,000007E4,false,Rx,0,8,4C,B5,00,00,00,00,00,C6,
18525730,00000466,false,Rx,0,8,8C,6E,6C,6D,FC,78,0C,79,
18526619,00000476,false,Rx,0,8,8C,79,0C,79,0C,79,0C,78,
18527605,000007E6,false,Rx,0,8,40,00,00,00,00,00,00,07,
18550210,00000468,false,Rx,0,8,8C,A2,6C,A3,FC,AA,0C,AA,
18551119,00000478,false,Rx,0,8,8C,AA,0C,A9,0C,AA,0C,AB,
18552085,000007E8,false,Rx,0,8,4C,92,00,00,00,00,00,A7,
18560846,0000046A,false,Rx,0,8,8C,AF,6C,B2,FC,B5,0C,B9,
18561746,0000047A,false,Rx,0,8,8C,B7,0C,B8,0C,B7,0C,B7,
18562730,000007EA,false,Rx,0,8,40,00,00,00,00,00,00,0B,
18569721,0000046C,false,Rx,0,6,8B,11,6B,11,FB,1B,00,00,
18570529,0000047C,false,Rx,0,6,8B,1C,0B,1C,0B,1C,00,00,
18571503,000007EC,false,Rx,0,8,4C,BB,00,00,00,00,00,D4,
18573842,0000046D,false,Rx,0,6,8C,99,6C,99,FC,A2,00,00,
18574640,0000047D,false,Rx,0,6,8C,A0,0C,9F,0C,A1,00,00,
18575634,000007ED,false,Rx,0,8,4C,C3,00,00,00,00,00,DD,
18579320,0000046E,false,Rx,0,6,8C,A1,6C,A2,FC,A9,00,00,
18580109,0000047E,false,Rx,0,6,8C,A9,0C,A9,0C,A8,00,00,
18581133,000007EE,false,Rx,0,8,40,00,00,00,00,00,00,0F,
18596155,00000200,false,Rx,0,3,D2,6D,00,00,00,00,00,00,
18693994,00000460,false,Rx,0,6,8B,0E,0B,0D,BB,15,00,00,
18694760,00000470,false,Rx,0,6,8B,17,0B,16,0B,16,00,00,
18695806,000007E0,false,Rx,0,8,CC,B1,00,00,00,00,00,C0,
18700410,00000461,false,Rx,0,8,8B,0A,0B,0B,BB,11,0B,11,
18701310,00000471,false,Rx,0,8,8B,11,0B,13,0B,13,0B,13,
18702314,00000300,false,Rx,0,8,00,00,00,00,00,00,00,00,
18703288,000007E1,false,Rx,0,8,CC,A5,00,00,00,00,00,B5,
18704071,00000310,false,Rx,0,5,00,00,00,00,00,00,00,00,
18710689,00000463,false,Rx,0,8,8B,0F,0B,12,BB,1B,0B,1A,
18711599,00000473,false,Rx,0,8,8B,1C,0B,1C,0B,1B,0B,1C,
18712584,000007E3,false,Rx,0,8,C0,00,00,00,00,00,00,06,
18715485,00000464,false,Rx,0,8,8C,C5,0C,C7,BC,D5,0C,D4,
18716396,00000474,false,Rx,0,8,8C,D4,0C,D5,0C,D3,0C,D3,
18717370,000007E4,false,Rx,0,8,CC,B5,00,00,00,00,00,C8,
18725736,00000466,false,Rx,0,8,8C,6E,0C,6D,BC,77,0C,78,
18726636,00000476,false,Rx,0,8,8C,78,0C,78,0C,79,0C,78,
18727640,000007E6,false,Rx,0,8,C0,00,00,00,00,00,00,09,
18750229,00000468,false,Rx,0,8,8C,A2,0C,A4,BC,AA,0C,AA,
18751139,00000478,false,Rx,0,8,8C,A9,0C,A8,0C,AA,0C,AB,
18752113,000007E8,false,Rx,0,8,CC,92,00,00,00,00,00,A9,
18760866,0000046A,false,Rx,0,8,8C,B1,0C,B2,BC,B8,0C,B6,
18761787,0000047A,false,Rx,0,8,8C,B8,0C,B6,0C,B8,0C,B8,
18762781,000007EA,false,Rx,0,8,C0,00,00,00,00,00,00,0D,
18769741,0000046C,false,Rx,0,6,8B,10,0B,12,BB,1B,00,00,
18770539,0000047C,false,Rx,0,6,8B,1C,0B,1C,0B,1C,00,00,
18771533,000007EC,false,Rx,0,8,CC,BB,00,00,00,00,00,D6,
18773873,0000046D,false,Rx,0,6,8C,98,0C,98,BC,A1,00,00,
18774681,0000047D,false,Rx,0,6,8C,A0,0C,9F,0C,A0,00,00,
18775676,000007ED,false,Rx,0,8,CC,C3,00,00,00,00,00,DF,
18779342,0000046E,false,Rx,0,6,8C,A1,0C,A2,BC,A9,00,00,
18780137,0000047E,false,Rx,0,6,8C,A9,0C,A9,0C,A8,00,00,
18781172,000007EE,false,Rx,0,8,C0,00,00,00,00,00,00,11,
18796164,00000200,false,Rx,0,3,52,9C,00,00,00,00,00,00,
18894027,00000460,false,Rx,0,6,8B,0E,9B,0D,4B,15,00,00,
18894824,00000470,false,Rx,0,6,8B,17,0B,16,0B,17,00,00,
18895829,000007E0,false,Rx,0,8,4C,B0,00,00,00,00,00,BD,
18900412,00000461,false,Rx,0,8,8B,08,9B,09,4B,10,0B,12,
18901303,00000471,false,Rx,0,8,8B,11,0B,11,0B,11,0B,11,
18902309,00000300,false,Rx,0,8,00,00,00,00,00,00,00,00,
18903282,000007E1,false,Rx,0,8,4C,A5,00,00,00,00,00,B3,
18904064,00000310,false,Rx,0,5,00,00,00,00,00,00,00,00,
18910703,00000463,false,Rx,0,8,8B,0F,9B,11,4B,1B,0B,1A,
18911593,00000473,false,Rx,0,8,8B,1C,0B,1D,0B,1B,0B,1A,
18912588,000007E3,false,Rx,0,8,40,00,00,00,00,00,00,04,
18915510,00000464,false,Rx,0,8,8C,C5,9C,C7,4C,D5,0C,D4,
18916421,00000474,false,Rx,0,8,8C,D4,0C,D5,0C,D3,0C,D3,
18917405,000007E4,false,Rx,0,8,4C,B5,00,00,00,00,00,C6,
18925740,00000466,false,Rx,0,8,8C,6E,9C,6E,4C,79,0C,79,
18926639,00000476,false,Rx,0,8,8C,78,0C,79,0C,79,0C,78,
18927625,000007E6,false,Rx,0,8,40,00,00,00,00,00,00,07,
18950222,00000468,false,Rx,0,8,8C,A3,9C,A3,4C,A9,0C,AA,
18951162,00000478,false,Rx,0,8,8C,AA,0C,A8,0C,AA,0C,AC,
18952128,000007E8,false,Rx,0,8,4C,92,00,00,00,00,00,A7,
18960891,0000046A,false,Rx,0,8,8C,B1,9C,B2,4C,B6,0C,BA,
18961780,0000047A,false,Rx,0,8,8C,B6,0C,B9,0C,B9,0C,B6,
18962765,000007EA,false,Rx,0,8,40,00,00,00,00,00,00,0B,
18969744,0000046C,false,Rx,0,6,8B,11,9B,12,4B,1B,00,00,
18970532,0000047C,false,Rx,0,6,8B,1B,0B,1B,0B,1C,00,00,
18971547,000007EC,false,Rx,0,8,4C,BB,00,00,00,00,00,D4,
18973876,0000046D,false,Rx,0,6,8C,99,9C,98,4C,A1,00,00,
18974674,0000047D,false,Rx,0,6,8C,A1,0C,9F,0C,A1,00,00,
18975679,000007ED,false,Rx,0,8,4C,C3,00,00,00,00,00,DD,
18979386,0000046E,false,Rx,0,6,8C,A1,9C,A2,4C,A9,00,00,
18980184,0000047E,false,Rx,0,6,8C,A9,0C,A8,0C,A8,00,00,
18981199,000007EE,false,Rx,0,8,40,00,00,00,00,00,00,0F,
18996182,00000200,false,Rx,0,3,D2,AF,00,00,00,00,00,00,
19094048,00000460,false,Rx,0,6,8B,0F,4B,0D,5B,16,00,00,
19094835,00000470,false,Rx,0,6,8B,17,0B,16,0B,18,00,00,
19095870,000007E0,false,Rx,0,8,CC,B1,00,00,00,00,00,C0,
19100444,00000461,false,Rx,0,8,8B,09,4B,0A,5B,12,0B,14,
19101353,00000471,false,Rx,0,8,8B,12,0B,13,0B,12,0B,14,
19102359,00000300,false,Rx,0,8,00,00,00,00,00,00,00,00,
19103331,000007E1,false,Rx,0,8,CC,A4,00,00,00,00,00,B4,
19104124,00000310,false,Rx,0,5,00,00,00,00,00,00,00,00,
19110713,00000463,false,Rx,0,8,8B,0F,4B,12,5B,1B,0B,1A,
19111623,00000473,false,Rx,0,8,8B,1A,0B,1D,0B,1C,0B,1A,
19112617,000007E3,false,Rx,0,8,C0,00,00,00,00,00,00,06,
19115539,00000464,false,Rx,0,8,8C,C5,4C,C6,5C,D4,0C,D4,
19116449,00000474,false,Rx,0,8,8C,D4,0C,D5,0C,D3,0C,D2,
19117415,000007E4,false,Rx,0,8,CC,B5,00,00,00,00,00,C8,
19125791,00000466,false,Rx,0,8,8C,70,4C,70,5C,7A,0C,7A,
19126691,00000476,false,Rx,0,8,8C,79,0C,79,0C,79,0C,78,
19127686,000007E6,false,Rx,0,8,C0,00,00,00,00,00,00,09,
19150243,00000468,false,Rx,0,8,8C,A2,4C,A4,5C,A9,0C,AA,
19151174,00000478,false,Rx,0,8,8C,AA,0C,A8,0C,AA,0C,AB,
19152149,000007E8,false,Rx,0,8,CC,92,00,00,00,00,00,A9,
19160901,0000046A,false,Rx,0,8,8C,AF,4C,B3,5C,B6,0C,B9,
19161802,0000047A,false,Rx,0,8,8C,B8,0C,B7,0C,B9,0C,B6,
19162797,000007EA,false,Rx,0,8,C0,00,00,00,00,00,00,0D,
19169787,0000046C,false,Rx,0,6,8B,10,4B,12,5B,1B,00,00,
19170565,0000047C,false,Rx,0,6,8B,1B,0B,1C,0B,1C,00,00,
19171569,000007EC,false,Rx,0,8,CC,BB,00,00,00,00,00,D6,
19173928,0000046D,false,Rx,0,6,8C,99,4C,97,5C,A1,00,00,
19174727,0000047D,false,Rx,0,6,8C,A0,0C,A0,0C,9F,00,00,
19175732,000007ED,false,Rx,0,8,CC,C3,00,00,00,00,00,DF,
19179376,0000046E,false,Rx,0,6,8C,A1,4C,A2,5C,A9,00,00,
19180165,0000047E,false,Rx,0,6,8C,A9,0C,A9,0C,A9,00,00,
19181210,000007EE,false,Rx,0,8,C0,00,00,00,00,00,00,11,
19196211,00000200,false,Rx,0,3,52,C0,00,00,00,00,00,00,
19294061,00000460,false,Rx,0,6,8B,0E,AB,0D,DB,15,00,00,
19294858,00000470,false,Rx,0,6,8B,17,0B,16,0B,17,00,00,
19295893,000007E0,false,Rx,0,8,4C,B1,00,00,00,00,00,BE,
19300466,00000461,false,Rx,0,8,8B,09,AB,0A,DB,11,0B,12,
19301375,00000471,false,Rx,0,8,8B,10,0B,11,0B,10,0B,11,
19302381,00000300,false,Rx,0,8,00,00,00,00,00,00,00,00,
19303345,000007E1,false,Rx,0,8,4C,A4,00,00,00,00,00,B2,
19304127,00000310,false,Rx,0,5,00,00,00,00,00,00,00,00,
19310736,00000463,false,Rx,0,8,8B,10,AB,13,DB,1D,0B,1C,
19311637,00000473,false,Rx,0,8,8B,19,0B,1B,0B,1B,0B,1C,
19312623,000007E3,false,Rx,0,8,40,00,00,00,00,00,00,04,
19315566,00000464,false,Rx,0,8,8C,C6,AC,C5,DC,D4,0C,D4,
19316476,00000474,false,Rx,0,8,8C,D4,0C,D5,0C,D4,0C,D3,
19317460,000007E4,false,Rx,0,8,4C,B5,00,00,00,00,00,C6,
19325806,00000466,false,Rx,0,8,8C,6F,AC,6D,DC,77,0C,79,
19326716,00000476,false,Rx,0,8,8C,79,0C,78,0C,77,0C,76,
19327701,000007E6,false,Rx,0,8,40,00,00,00,00,00,00,07,
19350300,00000468,false,Rx,0,8,8C,A3,AC,A4,DC,A9,0C,A9,
19351230,00000478,false,Rx,0,8,8C,AA,0C,A8,0C,AA,0C,AB,
19352194,000007E8,false,Rx,0,8,4C,93,00,00,00,00,00,A8,
19360937,0000046A,false,Rx,0,8,8C,B0,AC,B2,DC,B7,0C,B8,
19361837,0000047A,false,Rx,0,8,8C,B7,0C,B7,0C,B7,0C,B7,
19362821,000007EA,false,Rx,0,8,40,00,00,00,00,00,00,0B,
19369790,0000046C,false,Rx,0,6,8B,11,AB,11,DB,1A,00,00,
19370578,0000047C,false,Rx,0,6,8B,1B,0B,1B,0B,1C,00,00,
19371604,000007EC,false,Rx,0,8,4C,BB,00,00,00,00,00,D4,
19373964,0000046D,false,Rx,0,6,8C,99,AC,97,DC,A1,00,00,
19374752,0000047D,false,Rx,0,6,8C,A1,0C,A0,0C,9F,00,00,
19375767,000007ED,false,Rx,0,8,4C,C3,00,00,00,00,00,DD,
19379402,0000046E,false,Rx,0,6,8C,A1,AC,A2,DC,A9,00,00,
19380190,0000047E,false,Rx,0,6,8C,A9,0C,A7,0C,A8,00,00,
19381224,000007EE,false,Rx,0,8,40,00,00,00,00,00,00,0F,
19396218,00000200,false,Rx,0,3,D2,F3,00,00,00,00,00,00,
19494080,00000460,false,Rx,0,6,8B,0E,8B,0E,3B,14,00,00,
19494867,00000470,false,Rx,0,6,8B,18,0B,17,0B,17,00,00,
19495883,000007E0,false,Rx,0,8,CC,B0,00,00,00,00,00,BF,
19500476,00000461,false,Rx,0,8,8B,09,8B,0B,3B,13,0B,13,
19501386,00000471,false,Rx,0,8,8B,11,0B,10,0B,10,0B,12,
19502391,00000300,false,Rx,0,8,00,00,00,00,00,00,00,00,
19503363,000007E1,false,Rx,0,8,CC,A5,00,00,00,00,00,B5,
19504146,00000310,false,Rx,0,5,00,00,00,00,00,00,00,00,
19510776,00000463,false,Rx,0,8,8B,0F,8B,12,3B,1A,0B,1C,
19511676,00000473,false,Rx,0,8,8B,1C,0B,1B,0B,1C,0B,1A,
19512670,000007E3,false,Rx,0,8,C0,00,00,00,00,00,00,06,
19515592,00000464,false,Rx,0,8,8C,C5,8C,C6,3C,D6,0C,D3,
19516492,00000474,false,Rx,0,8,8C,D3,0C,D5,0C,D3,0C,D2,
19517458,000007E4,false,Rx,0,8,CC,B5,00,00,00,00,00,C8,
19525822,00000466,false,Rx,0,8,8C,6E,8C,6F,3C,79,0C,7A,
19526722,00000476,false,Rx,0,8,8C,79,0C,77,0C,76,0C,77,
19527727,000007E6,false,Rx,0,8,C0,00,00,00,00,00,00,09,
19550310,00000468,false,Rx,0,8,8C,A3,8C,A3,3C,AA,0C,AA,
19551231,00000478,false,Rx,0,8,8C,A8,0C,A9,0C,AA,0C,AB,
19552196,000007E8,false,Rx,0,8,CC,92,00,00,00,00,00,A9,
19560958,0000046A,false,Rx,0,8,8C,B0,8C,B2,3C,B8,0C,B8,
19561858,0000047A,false,Rx,0,8,8C,B8,0C,B7,0C,B8,0C,B7,
19562855,000007EA,false,Rx,0,8,C0,00,00,00,00,00,00,0D,
19569814,0000046C,false,Rx,0,6,8B,10,8B,12,3B,1B,00,00,
19570622,0000047C,false,Rx,0,6,8B,1C,0B,1C,0B,1C,00,00,
19571617,000007EC,false,Rx,0,8,CC,BB,00,00,00,00,00,D6,
19573977,0000046D,false,Rx,0,6,8C,98,8C,97,3C,A2,00,00,
19574795,0000047D,false,Rx,0,6,8C,9F,0C,9F,0C,A0,00,00,
19575790,000007ED,false,Rx,0,8,CC,C3,00,00,00,00,00,DF,
19579435,0000046E,false,Rx,0,6,8C,A1,8C,A2,3C,A9,00,00,
19580243,0000047E,false,Rx,0,6,8C,A8,0C,A8,0C,A8,00,00,
19581259,000007EE,false,Rx,0,8,C0,00,00,00,00,00,00,11,
19596230,00000200,false,Rx,0,3,52,05,00,00,00,00,00,00,
19694074,00000460,false,Rx,0,6,8B,0E,4B,0D,CB,15,00,00,
19694871,00000470,false,Rx,0,6,8B,17,0B,16,0B,17,00,00,
19695875,000007E0,false,Rx,0,8,4C,B0,00,00,00,00,00,BD,
19700459,00000461,false,Rx,0,8,8B,09,4B,09,CB,10,0B,12,
19701348,00000471,false,Rx,0,8,8B,12,0B,13,0B,13,0B,13,
19702353,00000300,false,Rx,0,8,00,00,00,00,00,00,00,00,
19703327,000007E1,false,Rx,0,8,4C,A5,00,00,00,00,00,B3,
19704110,00000310,false,Rx,0,5,00,00,00,00,00,00,00,00,
19710739,00000463,false,Rx,0,8,8B,12,4B,10,CB,1C,0B,1D,
19711659,00000473,false,Rx,0,8,8B,1A,0B,1C,0B,1C,0B,1A,
19712644,000007E3,false,Rx,0,8,40,00,00,00,00,00,00,04,
19715547,00000464,false,Rx,0,8,8C,C5,4C,C6,CC,D5,0C,D5,
19716446,00000474,false,Rx,0,8,8C,D3,0C,D4,0C,D3,0C,D3,
19717430,000007E4,false,Rx,0,8,4C,B5,00,00,00,00,00,C6,
19725795,00000466,false,Rx,0,8,8C,6E,4C,6E,CC,77,0C,77,
19726695,00000476,false,Rx,0,8,8C,77,0C,77,0C,78,0C,79,
19727679,000007E6,false,Rx,0,8,40,00,00,00,00,00,00,07,
19750277,00000468,false,Rx,0,8,8C,A2,4C,A3,CC,AA,0C,AA,
19751207,00000478,false,Rx,0,8,8C,AA,0C,A8,0C,AA,0C,AB,
19752171,000007E8,false,Rx,0,8,4C,92,00,00,00,00,00,A7,
19760925,0000046A,false,Rx,0,8,8C,B3,4C,B1,CC,B9,0C,B7,
19761825,0000047A,false,Rx,0,8,8C,B9,0C,B6,0C,B9,0C,B7,
19762809,000007EA,false,Rx,0,8,40,00,00,00,00,00,00,0B,
19769788,0000046C,false,Rx,0,6,8B,11,4B,12,CB,1B,00,00,
19770587,0000047C,false,Rx,0,6,8B,1C,0B,1C,0B,1C,00,00,
19771592,000007EC,false,Rx,0,8,4C,BB,00,00,00,00,00,D4,
19773942,0000046D,false,Rx,0,6,8C,99,4C,97,CC,A1,00,00,
19774750,0000047D,false,Rx,0,6,8C,A1,0C,9F,0C,9F,00,00,
19775724,000007ED,false,Rx,0,8,4C,C3,00,00,00,00,00,DD,
19779400,0000046E,false,Rx,0,6,8C,A1,4C,A2,CC,AA,00,00,
19780195,0000047E,false,Rx,0,6,8C,A9,0C,A8,0C,A8,00,00,
19781210,000007EE,false,Rx,0,8,40,00,00,00,00,00,00,0F,
19796243,00000200,false,Rx,0,3,D2,36,00,00,00,00,00,00,
19894065,00000460,false,Rx,0,6,8B,0F,1B,0D,BB,16,00,00,
19894862,00000470,false,Rx,0,6,8B,17,0B,16,0B,17,00,00,
19895877,000007E0,false,Rx,0,8,CC,B0,00,00,00,00,00,BF,
19900491,00000461,false,Rx,0,8,8B,08,1B,08,BB,12,0B,14,
19901392,00000471,false,Rx,0,8,8B,13,0B,13,0B,11,0B,11,
19902397,00000300,false,Rx,0,8,00,00,00,00,00,00,00,00,
19903369,000007E1,false,Rx,0,8,CC,A5,00,00,00,00,00,B5,
19904152,00000310,false,Rx,0,5,00,00,00,00,00,00,00,00,
19910771,00000463,false,Rx,0,8,8B,10,1B,10,BB,1C,0B,1C,
19911671,00000473,false,Rx,0,8,8B,1A,0B,1C,0B,1D,0B,1B,
19912665,000007E3,false,Rx,0,8,C0,00,00,00,00,00,00,06,
19915567,00000464,false,Rx,0,8,8C,C5,1C,C7,BC,D5,0C,D4,
19916477,00000474,false,Rx,0,8,8C,D3,0C,D4,0C,D3,0C,D2,
19917451,000007E4,false,Rx,0,8,CC,B4,00,00,00,00,00,C7,
19925807,00000466,false,Rx,0,8,8C,6E,1C,6D,BC,77,0C,77,
19926707,00000476,false,Rx,0,8,8C,77,0C,77,0C,78,0C,78,
19927703,000007E6,false,Rx,0,8,C0,00,00,00,00,00,00,09,
19950291,00000468,false,Rx,0,8,8C,A2,1C,A3,BC,A9,0C,AA,
19951211,00000478,false,Rx,0,8,8C,A9,0C,A8,0C,AA,0C,AB,
19952176,000007E8,false,Rx,0,8,CC,92,00,00,00,00,00,A9,
19960959,0000046A,false,Rx,0,8,8C,B0,1C,B2,BC,B7,0C,B8,
19961859,0000047A,false,Rx,0,8,8C,B8,0C,B5,0C,B9,0C,B7,
19962855,000007EA,false,Rx,0,8,C0,00,00,00,00,00,00,0D,
19969805,0000046C,false,Rx,0,6,8B,11,1B,11,BB,1C,00,00,
19970613,0000047C,false,Rx,0,6,8B,1B,0B,1C,0B,1D,00,00,
19971607,000007EC,false,Rx,0,8,CC,BB,00,00,00,00,00,D6,
19973967,0000046D,false,Rx,0,6,8C,99,1C,98,BC,A1,00,00,
19974775,0000047D,false,Rx,0,6,8C,A0,0C,9F,0C,9F,00,00,
19975789,000007ED,false,Rx,0,8,CC,C3,00,00,00,00,00,DF,
19979435,0000046E,false,Rx,0,6,8C,A1,1C,A2,BC,AA,00,00,
19980223,0000047E,false,Rx,0,6,8C,A9,0C,A8,0C,A8,00,00,
19981249,000007EE,false,Rx,0,8,C0,00,00,00,00,00,00,11,
19996250,00000200,false,Rx,0,3,52,59,00,00,00,00,00,00,
20094090,00000460,false,Rx,0,6,8B,0E,6B,0E,FB,15,00,00,
20094877,00000470,false,Rx,0,6,8B,18,0B,17,0B,17,00,00,
20095883,000007E0,false,Rx,0,8,4C,B0,00,00,00,00,00,BD,
20100507,00000461,false,Rx,0,8,8B,0A,6B,0A,FB,11,0B,13,
20101396,00000471,false,Rx,0,8,8B,11,0B,11,0B,11,0B,11,
20102401,00000300,false,Rx,0,8,00,00,00,00,00,00,00,00,
20103364,000007E1,false,Rx,0,8,4C,A4,00,00,00,00,00,B2,
20104147,00000310,false,Rx,0,5,00,00,00,00,00,00,00,00,
20110797,00000463,false,Rx,0,8,8B,0E,6B,10,FB,1C,0B,1C,
20111707,00000473,false,Rx,0,8,8B,19,0B,1C,0B,1C,0B,1B,
20112693,000007E3,false,Rx,0,8,40,00,00,00,00,00,00,04,
20115594,00000464,false,Rx,0,8,8C,C5,6C,C6,FC,D5,0C,D4,
20116496,00000474,false,Rx,0,8,8C,D3,0C,D5,0C,D3,0C,D2,
20117481,000007E4,false,Rx,0,8,4C,B5,00,00,00,00,00,C6,
20125836,00000466,false,Rx,0,8,8C,6D,6C,70,FC,7A,0C,7A,
20126726,00000476,false,Rx,0,8,8C,77,0C,77,0C,78,0C,79,
20127710,000007E6,false,Rx,0,8,40,00,00,00,00,00,00,07,
20150320,00000468,false,Rx,0,8,8C,A3,6C,A4,FC,AA,0C,AA,
20151229,00000478,false,Rx,0,8,8C,A9,0C,A8,0C,AA,0C,AB,
20152193,000007E8,false,Rx,0,8,4C,92,00,00,00,00,00,A7,
20160956,0000046A,false,Rx,0,8,8C,B4,6C,B0,FC,B9,0C,B8,
20161856,0000047A,false,Rx,0,8,8C,B7,0C,B8,0C,B6,0C,BA,
20162840,000007EA,false,Rx,0,8,40,00,00,00,00,00,00,0B,
20169839,0000046C,false,Rx,0,6,8B,11,6B,11,FB,1C,00,00,
20170637,0000047C,false,Rx,0,6,8B,1C,0B,1C,0B,1C,00,00,
20171621,000007EC,false,Rx,0,8,4C,BB,00,00,00,00,00,D4,
20173993,0000046D,false,Rx,0,6,8C,99,6C,98,FC,A1,00,00,
20174781,0000047D,false,Rx,0,6,8C,9F,0C,A1,0C,9F,00,00,
20175775,000007ED,false,Rx,0,8,4C,C3,00,00,00,00,00,DD,
20179440,0000046E,false,Rx,0,6,8C,A1,6C,A1,FC,A9,00,00,
20180249,0000047E,false,Rx,0,6,8C,A8,0C,A8,0C,A8,00,00,
20181253,000007EE,false,Rx,0,8,40,00,00,00,00,00,00,0F,
20196274,00000200,false,Rx,0,3,D2,6D,00,00,00,00,00,00,
20294123,00000460,false,Rx,0,6,8B,0E,0B,0D,BB,16,00,00,
20294910,00000470,false,Rx,0,6,8B,16,0B,17,0B,17,00,00,
20295934,000007E0,false,Rx,0,8,CC,B1,00,00,00,00,00,C0,
20300528,00000461,false,Rx,0,8,8B,09,0B,09,BB,10,0B,12,
20301427,00000471,false,Rx,0,8,8B,10,0B,11,0B,10,0B,12,
20302433,00000300,false,Rx,0,8,00,00,00,00,00,00,00,00,
20303416,000007E1,false,Rx,0,8,CC,A4,00,00,00,00,00,B4,
20304198,00000310,false,Rx,0,5,00,00,00,00,00,00,00,00,
20310798,00000463,false,Rx,0,8,8B,11,0B,10,BB,1B,0B,1D,
20311698,00000473,false,Rx,0,8,8B,1C,0B,1B,0B,1A,0B,1B,
20312693,000007E3,false,Rx,0,8,C0,00,00,00,00,00,00,06,
20315615,00000464,false,Rx,0,8,8C,C5,0C,C7,BC,D4,0C,D4,
20316515,00000474,false,Rx,0,8,8C,D5,0C,D6,0C,D3,0C,D2,
20317489,000007E4,false,Rx,0,8,CC,B5,00,00,00,00,00,C8,
20325864,00000466,false,Rx,0,8,8C,6F,0C,6E,BC,76,0C,78,
20326784,00000476,false,Rx,0,8,8C,78,0C,7A,0C,79,0C,77,
20327780,000007E6,false,Rx,0,8,C0,00,00,00,00,00,00,09,
20350356,00000468,false,Rx,0,8,8C,A2,0C,A3,BC,A8,0C,A9,
20351286,00000478,false,Rx,0,8,8C,AA,0C,A8,0C,AA,0C,AB,
20352251,000007E8,false,Rx,0,8,CC,92,00,00,00,00,00,A9,
20360995,0000046A,false,Rx,0,8,8C,B2,0C,B2,BC,B7,0C,B9,
20361883,0000047A,false,Rx,0,8,8C,B7,0C,B9,0C,B6,0C,BA,
20362878,000007EA,false,Rx,0,8,C0,00,00,00,00,00,00,0D,
20369868,0000046C,false,Rx,0,6,8B,10,0B,12,BB,1B,00,00,
20370646,0000047C,false,Rx,0,6,8B,1B,0B,1C,0B,1C,00,00,
20371650,000007EC,false,Rx,0,8,CC,BB,00,00,00,00,00,D6,
20373981,0000046D,false,Rx,0,6,8C,99,0C,98,BC,A1,00,00,
20374788,0000047D,false,Rx,0,6,8C,A0,0C,A1,0C,9F,00,00,
20375792,000007ED,false,Rx,0,8,CC,C3,00,00,00,00,00,DF,
20379468,0000046E,false,Rx,0,6,8C,A1,0C,A2,BC,A9,00,00,
20380266,0000047E,false,Rx,0,6,8C,A8,0C,A8,0C,A9,00,00,
20381290,000007EE,false,Rx,0,8,C0,00,00,00,00,00,00,11,
20396283,00000200,false,Rx,0,3,52,9C,00,00,00,00,00,00,
20494125,00000460,false,Rx,0,6,8B,0E,9B,0D,4B,15,00,00,
20494922,00000470,false,Rx,0,6,8B,17,0B,16,0B,17,00,00,
20495947,000007E0,false,Rx,0,8,4C,B1,00,00,00,00,00,BE,
20500551,00000461,false,Rx,0,8,8B,08,9B,0A,4B,12,0B,13,
20501451,00000471,false,Rx,0,8,8B,12,0B,13,0B,11,0B,12,
20502455,00000300,false,Rx,0,8,00,00,00,00,00,00,00,00,
20503418,000007E1,false,Rx,0,8,4C,A4,00,00,00,00,00,B2,
20504200,00000310,false,Rx,0,5,00,00,00,00,00,00,00,00,
20510820,00000463,false,Rx,0,8,8B,11,9B,10,4B,1A,0B,1A,
20511730,00000473,false,Rx,0,8,8B,1B,0B,1D,0B,1C,0B,1C,
20512716,000007E3,false,Rx,0,8,40,00,00,00,00,00,00,04,
20515637,00000464,false,Rx,0,8,8C,C5,9C,C7,4C,D4,0C,D4,
20516548,00000474,false,Rx,0,8,8C,D3,0C,D5,0C,D3,0C,D3,
20517523,000007E4,false,Rx,0,8,4C,B5,00,00,00,00,00,C6,
20525868,00000466,false,Rx,0,8,8C,70,9C,70,4C,79,0C,78,
20526779,00000476,false,Rx,0,8,8C,76,0C,76,0C,77,0C,78,
20527764,000007E6,false,Rx,0,8,40,00,00,00,00,00,00,07,
20550340,00000468,false,Rx,0,8,8C,A3,9C,A3,4C,A9,0C,AA,
20551269,00000478,false,Rx,0,8,8C,AA,0C,A8,0C,AA,0C,AB,
20552244,000007E8,false,Rx,0,8,4C,92,00,00,00,00,00,A7,
20560997,0000046A,false,Rx,0,8,8C,B1,9C,B2,4C,B9,0C,B7,
20561907,0000047A,false,Rx,0,8,8C,B9,0C,B5,0C,BA,0C,B5,
20562891,000007EA,false,Rx,0,8,40,00,00,00,00,00,00,0B,
20569861,0000046C,false,Rx,0,6,8B,11,9B,12,4B,1C,00,00,
20570659,0000047C,false,Rx,0,6,8B,1B,0B,1C,0B,1C,00,00,
20571674,000007EC,false,Rx,0,8,4C,BB,00,00,00,00,00,D4,
20574016,0000046D,false,Rx,0,6,8C,99,9C,97,4C,A2,00,00,
20574813,0000047D,false,Rx,0,6,8C,A0,0C,A0,0C,9F,00,00,
20575798,000007ED,false,Rx,0,8,4C,C3,00,00,00,00,00,DD,
20579483,0000046E,false,Rx,0,6,8C,A1,9C,A2,4C,A9,00,00,
20580283,0000047E,false,Rx,0,6,8C,A8,0C,A9,0C,A8,00,00,
20581307,000007EE,false,Rx,0,8,40,00,00,00,00,00,00,0F,
20596309,00000200,false,Rx,0,3,D2,AF,00,00,00,00,00,00,
20694142,00000460,false,Rx,0,6,8B,0E,4B,0D,5B,16,00,00,
20694949,00000470,false,Rx,0,6,8B,16,0B,16,0B,18,00,00,
20695964,000007E0,false,Rx,0,8,CC,B1,00,00,00,00,00,C0,
20700557,00000461,false,Rx,0,8,8B,0A,4B,0A,5B,12,0B,13,
20701447,00000471,false,Rx,0,8,8B,11,0B,11,0B,10,0B,11,
20702463,00000300,false,Rx,0,8,00,00,00,00,00,00,00,00,
20703435,000007E1,false,Rx,0,8,CC,A4,00,00,00,00,00,B4,
20704218,00000310,false,Rx,0,5,00,00,00,00,00,00,00,00,
20710838,00000463,false,Rx,0,8,8B,0E,4B,12,5B,1A,0B,1C,
20711738,00000473,false,Rx,0,8,8B,1C,0B,1B,0B,1C,0B,1A,
20712733,000007E3,false,Rx,0,8,C0,00,00,00,00,00,00,06,
20715655,00000464,false,Rx,0,8,8C,C6,4C,C6,5C,D5,0C,D5,
20716565,00000474,false,Rx,0,8,8C,D5,0C,D5,0C,D3,0C,D3,
20717529,000007E4,false,Rx,0,8,CC,B4,00,00,00,00,00,C7,
20725894,00000466,false,Rx,0,8,8C,6D,4C,6E,5C,78,0C,79,
20726784,00000476,false,Rx,0,8,8C,78,0C,79,0C,79,0C,78,
20727790,000007E6,false,Rx,0,8,C0,00,00,00,00,00,00,09,
20750376,00000468,false,Rx,0,8,8C,A3,4C,A3,5C,A9,0C,A9,
20751296,00000478,false,Rx,0,8,8C,AA,0C,A8,0C,AA,0C,AB,
20752271,000007E8,false,Rx,0,8,CC,92,00,00,00,00,00,A9,
20761036,0000046A,false,Rx,0,8,8C,B2,4C,B2,5C,B8,0C,B8,
20761934,0000047A,false,Rx,0,8,8C,B8,0C,B7,0C,B7,0C,B8,
20762929,000007EA,false,Rx,0,8,C0,00,00,00,00,00,00,0D,
20769899,0000046C,false,Rx,0,6,8B,11,4B,12,5B,1B,00,00,
20770697,0000047C,false,Rx,0,6,8B,1B,0B,1C,0B,1B,00,00,
20771682,000007EC,false,Rx,0,8,CC,BB,00,00,00,00,00,D6,
20774053,0000046D,false,Rx,0,6,8C,98,4C,98,5C,A1,00,00,
20774870,0000047D,false,Rx,0,6,8C,9F,0C,9F,0C,9F,00,00,
20775865,000007ED,false,Rx,0,8,CC,C3,00,00,00,00,00,DF,
20779500,0000046E,false,Rx,0,6,8C,A2,4C,A1,5C,A9,00,00,
20780306,0000047E,false,Rx,0,6,8C,A9,0C,A8,0C,A8,00,00,
20781330,000007EE,false,Rx,0,8,C0,00,00,00,00,00,00,11,
20796323,00000200,false,Rx,0,3,52,C0,00,00,00,00,00,00,
20894185,00000460,false,Rx,0,6,8B,0E,AB,0D,DB,15,00,00,
20894972,00000470,false,Rx,0,6,8B,17,0B,16,0B,17,00,00,
20895977,000007E0,false,Rx,0,8,4C,B0,00,00,00,00,00,BD,
20900581,00000461,false,Rx,0,8,8B,08,AB,09,DB,12,0B,15,
20901481,00000471,false,Rx,0,8,8B,14,0B,13,0B,11,0B,11,
20902486,00000300,false,Rx,0,8,00,00,00,00,00,00,00,00,
20903448,000007E1,false,Rx,0,8,4C,A4,00,00,00,00,00,B2,
20904231,00000310,false,Rx,0,5,00,00,00,00,00,00,00,00,
20910881,00000463,false,Rx,0,8,8B,0F,AB,12,DB,1A,0B,1B,
20911780,00000473,false,Rx,0,8,8B,1B,0B,1B,0B,1C,0B,1A,
20912775,000007E3,false,Rx,0,8,40,00,00,00,00,00,00,04,
20915666,00000464,false,Rx,0,8,8C,C5,AC,C6,DC,D5,0C,D4,
20916576,00000474,false,Rx,0,8,8C,D3,0C,D5,0C,D3,0C,D2,
20917562,000007E4,false,Rx,0,8,4C,B5,00,00,00,00,00,C6,
20925927,00000466,false,Rx,0,8,8C,71,AC,71,DC,7A,0C,7B,
20926837,00000476,false,Rx,0,8,8C,7A,0C,7A,0C,7A,0C,79,
20927822,000007E6,false,Rx,0,8,40,00,00,00,00,00,00,07,
20950400,00000468,false,Rx,0,8,8C,A2,AC,A3,DC,AA,0C,AA,
20951331,00000478,false,Rx,0,8,8C,AA,0C,A8,0C,AA,0C,AB,
20952295,000007E8,false,Rx,0,8,4C,92,00,00,00,00,00,A7,
20961058,0000046A,false,Rx,0,8,8C,B2,AC,B2,DC,B8,0C,B9,
20961979,0000047A,false,Rx,0,8,8C,B6,0C,B9,0C,B6,0C,B8,
20962963,000007EA,false,Rx,0,8,40,00,00,00,00,00,00,0B,
20969921,0000046C,false,Rx,0,6,8B,11,AB,11,DB,1B,00,00,
20970699,0000047C,false,Rx,0,6,8B,1B,0B,1C,0B,1C,00,00,
20971713,000007EC,false,Rx,0,8,4C,BB,00,00,00,00,00,D4,
20974065,0000046D,false,Rx,0,6,8C,98,AC,99,DC,A1,00,00,
20974862,0000047D,false,Rx,0,6,8C,A1,0C,A0,0C,A0,00,00,
20975878,000007ED,false,Rx,0,8,4C,C3,00,00,00,00,00,DD,
20979522,0000046E,false,Rx,0,6,8C,A1,AC,A2,DC,A9,00,00,
20980340,0000047E,false,Rx,0,6,8C,A8,0C,A8,0C,A8,00,00,
20981356,000007EE,false,Rx,0,8,40,00,00,00,00,00,00,0F,
20996326,00000200,false,Rx,0,3,D2,F3,00,00,00,00,00,00,
21094186,00000460,false,Rx,0,6,8B,0E,8B,0D,3B,15,00,00,
21094984,00000470,false,Rx,0,6,8B,17,0B,16,0B,17,00,00,
21095998,000007E0,false,Rx,0,8,CC,B0,00,00,00,00,00,BF,
21100600,00000461,false,Rx,0,8,8B,0A,8B,09,3B,10,0B,13,
21101500,00000471,false,Rx,0,8,8B,12,0B,13,0B,12,0B,12,
21102515,00000300,false,Rx,0,8,00,00,00,00,00,00,00,00,
21103478,000007E1,false,Rx,0,8,CC,A5,00,00,00,00,00,B5,
21104261,00000310,false,Rx,0,5,00,00,00,00,00,00,00,00,
21110880,00000463,false,Rx,0,8,8B,0E,8B,12,3B,1C,0B,1A,
21111781,00000473,false,Rx,0,8,8B,1C,0B,1A,0B,1B,0B,1B,
21112775,000007E3,false,Rx,0,8,C0,00,00,00,00,00,00,06,
21115698,00000464,false,Rx,0,8,8C,C5,8C,C7,3C,D5,0C,D4,
21116597,00000474,false,Rx,0,8,8C,D3,0C,D5,0C,D3,0C,D3,
21117572,000007E4,false,Rx,0,8,CC,B5,00,00,00,00,00,C8,
21125949,00000466,false,Rx,0,8,8C,6F,8C,6F,3C,7A,0C,7B,
21126858,00000476,false,Rx,0,8,8C,79,0C,79,0C,78,0C,78,
21127853,000007E6,false,Rx,0,8,C0,00,00,00,00,00,00,09,
21150422,00000468,false,Rx,0,8,8C,A2,8C,A3,3C,AA,0C,AA,
21151332,00000478,false,Rx,0,8,8C,AA,0C,A9,0C,AA,0C,AB,
21152307,000007E8,false,Rx,0,8,CC,92,00,00,00,00,00,A9,
21161072,0000046A,false,Rx,0,8,8C,AF,8C,B3,3C,B7,0C,B8,
21161982,0000047A,false,Rx,0,8,8C,B9,0C,B5,0C,B8,0C,B8,
21162966,000007EA,false,Rx,0,8,C0,00,00,00,00,00,00,0D,
21169934,0000046C,false,Rx,0,6,8B,11,8B,11,3B,1B,00,00,
21170732,0000047C,false,Rx,0,6,8B,1C,0B,1C,0B,1C,00,00,
21171728,000007EC,false,Rx,0,8,CC,BB,00,00,00,00,00,D6,
21174070,0000046D,false,Rx,0,6,8C,9A,8C,97,3C,A2,00,00,
21174877,0000047D,false,Rx,0,6,8C,9F,0C,A0,0C,9E,00,00,
21175871,000007ED,false,Rx,0,8,CC,C3,00,00,00,00,00,DF,
21179547,0000046E,false,Rx,0,6,8C,A1,8C,A2,3C,A9,00,00,
21180355,0000047E,false,Rx,0,6,8C,A8,0C,A8,0C,A8,00,00,
21181369,000007EE,false,Rx,0,8,C0,00,00,00,00,00,00,11,
21196342,00000200,false,Rx,0,3,52,05,00,00,00,00,00,00,
21294161,00000460,false,Rx,0,6,8B,0E,4B,0D,CB,16,00,00,
21294958,00000470,false,Rx,0,6,8B,17,0B,16,0B,17,00,00,
21295962,000007E0,false,Rx,0,8,4C,B0,00,00,00,00,00,BD,
21300557,00000461,false,Rx,0,8,8B,0A,4B,0B,CB,13,0B,14,
21301458,00000471,false,Rx,0,8,8B,12,0B,13,0B,11,0B,13,
21302462,00000300,false,Rx,0,8,00,00,00,00,00,00,00,00,
21303425,000007E1,false,Rx,0,8,4C,A4,00,00,00,00,00,B2,
21304207,00000310,false,Rx,0,5,00,00,00,00,00,00,00,00,
21310866,00000463,false,Rx,0,8,8B,10,4B,0F,CB,1B,0B,1B,
21311776,00000473,false,Rx,0,8,8B,1A,0B,1D,0B,1C,0B,1A,
21312771,000007E3,false,Rx,0,8,40,00,00,00,00,00,00,04,
21315663,00000464,false,Rx,0,8,8C,C5,4C,C6,CC,D5,0C,D4,
21316572,00000474,false,Rx,0,8,8C,D4,0C,D5,0C,D3,0C,D3,
21317558,000007E4,false,Rx,0,8,4C,B5,00,00,00,00,00,C6,
21325902,00000466,false,Rx,0,8,8C,6E,4C,6E,CC,79,0C,78,
21326823,00000476,false,Rx,0,8,8C,78,0C,77,0C,78,0C,78,
21327797,000007E6,false,Rx,0,8,40,00,00,00,00,00,00,07,
21350405,00000468,false,Rx,0,8,8C,A2,4C,A4,CC,AA,0C,AA,
21351335,00000478,false,Rx,0,8,8C,AA,0C,A8,0C,AA,0C,AA,
21352301,000007E8,false,Rx,0,8,4C,92,00,00,00,00,00,A7,
21361023,0000046A,false,Rx,0,8,8C,B1,4C,B0,CC,B9,0C,B8,
21361932,0000047A,false,Rx,0,8,8C,B6,0C,BA,0C,B9,0C,B7,
21362917,000007EA,false,Rx,0,8,40,00,00,00,00,00,00,0B,
21369908,0000046C,false,Rx,0,6,8B,10,4B,12,CB,1B,00,00,
21370706,0000047C,false,Rx,0,6,8B,1C,0B,1C,0B,1C,00,00,
21371710,000007EC,false,Rx,0,8,4C,BB,00,00,00,00,00,D4,
21374041,0000046D,false,Rx,0,6,8C,99,4C,97,CC,A2,00,00,
21374848,0000047D,false,Rx,0,6,8C,9F,0C,A0,0C,9F,00,00,
21375842,000007ED,false,Rx,0,8,4C,C3,00,00,00,00,00,DD,
21379558,0000046E,false,Rx,0,6,8C,A1,4C,A1,CC,A9,00,00,
21380346,0000047E,false,Rx,0,6,8C,A8,0C,A9,0C,A8,00,00,
21381362,000007EE,false,Rx,0,8,40,00,00,00,00,00,00,0F,
21396363,00000200,false,Rx,0,3,D2,36,00,00,00,00,00,00,
21494183,00000460,false,Rx,0,6,8B,0E,1B,0D,BB,16,00,00,
21494982,00000470,false,Rx,0,6,8B,17,0B,16,0B,17,00,00,
21495997,000007E0,false,Rx,0,8,CC,B0,00,00,00,00,00,BF,
21500600,00000461,false,Rx,0,8,8B,0A,1B,0A,BB,12,0B,14,
21501510,00000471,false,Rx,0,8,8B,11,0B,12,0B,10,0B,11,
21502515,00000300,false,Rx,0,8,00,00,00,00,00,00,00,00,
21503489,000007E1,false,Rx,0,8,CC,A4,00,00,00,00,00,B4,
21504271,00000310,false,Rx,0,5,00,00,00,00,00,00,00,00,
21510870,00000463,false,Rx,0,8,8B,11,1B,10,BB,1B,0B,1C,
21511779,00000473,false,Rx,0,8,8B,1A,0B,1C,0B,1C,0B,1A,
21512775,000007E3,false,Rx,0,8,C0,00,00,00,00,00,00,06,
21515676,00000464,false,Rx,0,8,8C,C5,1C,C7,BC,D5,0C,D4,
21516577,00000474,false,Rx,0,8,8C,D4,0C,D5,0C,D3,0C,D2,
21517552,000007E4,false,Rx,0,8,CC,B4,00,00,00,00,00,C7,
21525938,00000466,false,Rx,0,8,8C,6D,1C,6F,BC,7A,0C,79,
21526848,00000476,false,Rx,0,8,8C,76,0C,77,0C,79,0C,79,
21527842,000007E6,false,Rx,0,8,C0,00,00,00,00,00,00,09,
21550418,00000468,false,Rx,0,8,8C,A3,1C,A4,BC,AA,0C,AA,
21551338,00000478,false,Rx,0,8,8C,AA,0C,A8,0C,AA,0C,AB,
21552312,000007E8,false,Rx,0,8,CC,92,00,00,00,00,00,A9,
21561088,0000046A,false,Rx,0,8,8C,AF,1C,B3,BC,B8,0C,B7,
21561987,0000047A,false,Rx,0,8,8C,B9,0C,B7,0C,B8,0C,B9,
21562982,000007EA,false,Rx,0,8,C0,00,00,00,00,00,00,0D,
21569930,0000046C,false,Rx,0,6,8B,11,1B,11,BB,1B,00,00,
21570708,0000047C,false,Rx,0,6,8B,1B,0B,1C,0B,1C,00,00,
21571722,000007EC,false,Rx,0,8,CC,BB,00,00,00,00,00,D6,
21574063,0000046D,false,Rx,0,6,8C,9A,1C,97,BC,A2,00,00,
21574861,0000047D,false,Rx,0,6,8C,A0,0C,A0,0C,A0,00,00,
21575875,000007ED,false,Rx,0,8,CC,C3,00,00,00,00,00,DF,
21579541,0000046E,false,Rx,0,6,8C,A1,1C,A2,BC,A9,00,00,
21580350,0000047E,false,Rx,0,6,8C,A8,0C,A8,0C,A8,00,00,
21581365,000007EE,false,Rx,0,8,C0,00,00,00,00,00,00,11,
21596368,00000200,false,Rx,0,3,52,59,00,00,00,00,00,00,
21694210,00000460,false,Rx,0,6,8B,0E,6B,0D,FB,16,00,00,
21694976,00000470,false,Rx,0,6,8B,17,0B,17,0B,16,00,00,
21696022,000007E0,false,Rx,0,8,4C,B1,00,00,00,00,00,BE,
21700615,00000461,false,Rx,0,8,8B,0A,6B,0A,FB,12,0B,13,
21701515,00000471,false,Rx,0,8,8B,11,0B,11,0B,10,0B,12,
21702522,00000300,false,Rx,0,8,00,00,00,00,00,00,00,00,
21703474,000007E1,false,Rx,0,8,4C,A4,00,00,00,00,00,B2,
21704267,00000310,false,Rx,0,5,00,00,00,00,00,00,00,00,
21710896,00000463,false,Rx,0,8,8B,11,6B,10,FB,1A,0B,1D,
21711786,00000473,false,Rx,0,8,8B,1B,0B,1B,0B,1C,0B,1C,
21712780,000007E3,false,Rx,0,8,40,00,00,00,00,00,00,04,
21715703,00000464,false,Rx,0,8,8C,C5,6C,C7,FC,D5,0C,D5,
21716603,00000474,false,Rx,0,8,8C,D4,0C,D5,0C,D3,0C,D2,
21717587,000007E4,false,Rx,0,8,4C,B5,00,00,00,00,00,C6,
21725963,00000466,false,Rx,0,8,8C,6D,6C,6F,FC,7A,0C,7A,
21726852,00000476,false,Rx,0,8,8C,77,0C,77,0C,79,0C,79,
21727838,000007E6,false,Rx,0,8,40,00,00,00,00,00,00,07,
21750435,00000468,false,Rx,0,8,8C,A3,6C,A4,FC,AA,0C,AA,
21751355,00000478,false,Rx,0,8,8C,AB,0C,A8,0C,AA,0C,AC,
21752320,000007E8,false,Rx,0,8,4C,92,00,00,00,00,00,A7,
21761073,0000046A,false,Rx,0,8,8C,B2,6C,B2,FC,B7,0C,B7,
21761971,0000047A,false,Rx,0,8,8C,B8,0C,B7,0C,B8,0C,B9,
21762956,000007EA,false,Rx,0,8,40,00,00,00,00,00,00,0B,
21769957,0000046C,false,Rx,0,6,8B,11,6B,11,FB,1B,00,00,
21770755,0000047C,false,Rx,0,6,8B,1C,0B,1C,0B,1C,00,00,
21771729,000007EC,false,Rx,0,8,4C,BB,00,00,00,00,00,D4,
21774100,0000046D,false,Rx,0,6,8C,99,6C,97,FC,A2,00,00,
21774907,0000047D,false,Rx,0,6,8C,9F,0C,A1,0C,9F,00,00,
21775891,000007ED,false,Rx,0,8,4C,C3,00,00,00,00,00,DD,
21779557,0000046E,false,Rx,0,6,8C,A1,6C,A1,FC,A9,00,00,
21780352,0000047E,false,Rx,0,6,8C,AA,0C,A8,0C,A8,00,00,
21781377,000007EE,false,Rx,0,8,40,00,00,00,00,00,00,0F,
21796389,00000200,false,Rx,0,3,D2,6D,00,00,00,00,00,00,
21894243,00000460,false,Rx,0,6,8B,0E,0B,0D,BB,16,00,00,
21895020,00000470,false,Rx,0,6,8B,16,0B,16,0B,17,00,00,
21896036,000007E0,false,Rx,0,8,CC,B0,00,00,00,00,00,BF,
21900628,00000461,false,Rx,0,8,8B,0B,0B,0B,BB,11,0B,11,
21901508,00000471,false,Rx,0,8,8B,11,0B,11,0B,11,0B,12,
21902522,00000300,false,Rx,0,8,00,00,00,00,00,00,00,00,
21903495,000007E1,false,Rx,0,8,CC,A4,00,00,00,00,00,B4,
21904278,00000310,false,Rx,0,5,00,00,00,00,00,00,00,00,
21910907,00000463,false,Rx,0,8,8B,0F,0B,10,BB,1C,0B,1C,
21911827,00000473,false,Rx,0,8,8B,1A,0B,1B,0B,1C,0B,1C,
21912813,000007E3,false,Rx,0,8,C0,00,00,00,00,00,00,06,
21915724,00000464,false,Rx,0,8,8C,C5,0C,C7,BC,D5,0C,D4,
21916624,00000474,false,Rx,0,8,8C,D3,0C,D5,0C,D4,0C,D3,
21917589,000007E4,false,Rx,0,8,CC,B5,00,00,00,00,00,C8,
21925965,00000466,false,Rx,0,8,8C,6F,0C,6D,BC,79,0C,7A,
21926874,00000476,false,Rx,0,8,8C,79,0C,78,0C,77,0C,76,
21927869,000007E6,false,Rx,0,8,C0,00,00,00,00,00,00,09,
21950449,00000468,false,Rx,0,8,8C,A3,0C,A4,BC,AA,0C,AA,
21951389,00000478,false,Rx,0,8,8C,A8,0C,A8,0C,AA,0C,AB,
21952353,000007E8,false,Rx,0,8,CC,92,00,00,00,00,00,A9,
21961108,0000046A,false,Rx,0,8,8C,AF,0C,B2,BC,B7,0C,B8,
21961998,0000047A,false,Rx,0,8,8C,B8,0C,B5,0C,B9,0C,B6,
21962993,000007EA,false,Rx,0,8,C0,00,00,00,00,00,00,0D,
21969961,0000046C,false,Rx,0,6,8B,11,0B,12,BB,1B,00,00,
21970749,0000047C,false,Rx,0,6,8B,1C,0B,1B,0B,1C,00,00,
21971764,000007EC,false,Rx,0,8,CC,BB,00,00,00,00,00,D6,
21974124,0000046D,false,Rx,0,6,8C,9A,0C,97,BC,A1,00,00,
21974921,0000047D,false,Rx,0,6,8C,A1,0C,A0,0C,9E,00,00,
21975937,000007ED,false,Rx,0,8,CC,C3,00,00,00,00,00,DF,
21979582,0000046E,false,Rx,0,6,8C,A1,0C,A2,BC,A9,00,00,
21980380,0000047E,false,Rx,0,6,8C,A8,0C,A8,0C,A8,00,00,
21981405,000007EE,false,Rx,0,8,C0,00,00,00,00,00,00,11,
21996407,00000200,false,Rx,0,3,52,9C,00,00,00,00,00,00,
22094236,00000460,false,Rx,0,6,8B,0E,9B,0D,4B,15,00,00,
22095034,00000470,false,Rx,0,6,8B,18,0B,16,0B,17,00,00,
22096039,000007E0,false,Rx,0,8,4C,B0,00,00,00,00,00,BD,
22100651,00000461,false,Rx,0,8,8B,08,9B,09,4B,12,0B,14,
22101541,00000471,false,Rx,0,8,8B,12,0B,13,0B,11,0B,11,
22102557,00000300,false,Rx,0,8,00,00,00,00,00,00,00,00,
22103509,000007E1,false,Rx,0,8,4C,A4,00,00,00,00,00,B2,
22104302,00000310,false,Rx,0,5,00,00,00,00,00,00,00,00,
22110942,00000463,false,Rx,0,8,8B,0E,9B,10,4B,1C,0B,1C,
22111862,00000473,false,Rx,0,8,8B,1A,0B,1A,0B,1C,0B,1C,
22112846,000007E3,false,Rx,0,8,40,00,00,00,00,00,00,04,
22115739,00000464,false,Rx,0,8,8C,C5,9C,C6,4C,D5,0C,D4,
22116638,00000474,false,Rx,0,8,8C,D4,0C,D5,0C,D3,0C,D2,
22117623,000007E4,false,Rx,0,8,4C,B5,00,00,00,00,00,C6,
22125989,00000466,false,Rx,0,8,8C,6F,9C,6F,4C,7A,0C,7A,
22126888,00000476,false,Rx,0,8,8C,77,0C,77,0C,75,0C,77,
22127874,000007E6,false,Rx,0,8,40,00,00,00,00,00,00,07,
22150470,00000468,false,Rx,0,8,8C,A3,9C,A4,4C,AA,0C,AA,
22151390,00000478,false,Rx,0,8,8C,A9,0C,A8,0C,AA,0C,AB,
22152354,000007E8,false,Rx,0,8,4C,92,00,00,00,00,00,A7,
22161130,0000046A,false,Rx,0,8,8C,B0,9C,B2,4C,B6,0C,B9,
22162020,0000047A,false,Rx,0,8,8C,B7,0C,B7,0C,B8,0C,B7,
22163005,000007EA,false,Rx,0,8,40,00,00,00,00,00,00,0B,
22169975,0000046C,false,Rx,0,6,8B,11,9B,11,4B,1B,00,00,
22170783,0000047C,false,Rx,0,6,8B,1C,0B,1B,0B,1D,00,00,
22171789,000007EC,false,Rx,0,8,4C,BB,00,00,00,00,00,D4,
22174130,0000046D,false,Rx,0,6,8C,98,9C,97,4C,A2,00,00,
22174938,0000047D,false,Rx,0,6,8C,9E,0C,9F,0C,A0,00,00,
22175942,000007ED,false,Rx,0,8,4C,C3,00,00,00,00,00,DD,
22179598,0000046E,false,Rx,0,6,8C,A2,9C,A2,4C,A9,00,00,
22180385,0000047E,false,Rx,0,6,8C,A9,0C,A9,0C,A9,00,00,
22181420,000007EE,false,Rx,0,8,40,00,00,00,00,00,00,0F,
22196422,00000200,false,Rx,0,3,D2,AF,00,00,00,00,00,00,
22294260,00000460,false,Rx,0,6,8B,0E,4B,0D,5B,16,00,00,
22295048,00000470,false,Rx,0,6,8B,16,0B,16,0B,17,00,00,
22296074,000007E0,false,Rx,0,8,CC,B0,00,00,00,00,00,BF,
22300666,00000461,false,Rx,0,8,8B,08,4B,09,5B,10,0B,12,
22301576,00000471,false,Rx,0,8,8B,11,0B,10,0B,11,0B,12,
22302591,00000300,false,Rx,0,8,00,00,00,00,00,00,00,00,
22303563,000007E1,false,Rx,0,8,CC,A4,00,00,00,00,00,B4,
22304346,00000310,false,Rx,0,5,00,00,00,00,00,00,00,00,
22310957,00000463,false,Rx,0,8,8B,10,4B,12,5B,1D,0B,1B,
22311846,00000473,false,Rx,0,8,8B,19,0B,1B,0B,1C,0B,1C,
22312841,000007E3,false,Rx,0,8,C0,00,00,00,00,00,00,06,
22315764,00000464,false,Rx,0,8,8C,C6,4C,C7,5C,D4,0C,D4,
22316674,00000474,false,Rx,0,8,8C,D4,0C,D5,0C,D4,0C,D3,
22317639,000007E4,false,Rx,0,8,CC,B4,00,00,00,00,00,C7,
22326006,00000466,false,Rx,0,8,8C,6E,4C,6F,5C,79,0C,7A,
22326905,00000476,false,Rx,0,8,8C,79,0C,77,0C,76,0C,75,
22327910,000007E6,false,Rx,0,8,C0,00,00,00,00,00,00,09,
22350486,00000468,false,Rx,0,8,8C,A3,4C,A3,5C,A9,0C,AA,
22351398,00000478,false,Rx,0,8,8C,AA,0C,A8,0C,AB,0C,AB,
22352362,000007E8,false,Rx,0,8,CC,92,00,00,00,00,00,A9,
22361155,0000046A,false,Rx,0,8,8C,B2,4C,B0,5C,BA,0C,B7,
22362057,0000047A,false,Rx,0,8,8C,B8,0C,B7,0C,B8,0C,B7,
22363052,000007EA,false,Rx,0,8,C0,00,00,00,00,00,00,0D,
22370010,0000046C,false,Rx,0,6,8B,10,4B,11,5B,1B,00,00,
22370808,0000047C,false,Rx,0,6,8B,1C,0B,1C,0B,1C,00,00,
22371802,000007EC,false,Rx,0,8,CC,BB,00,00,00,00,00,D6,
22374153,0000046D,false,Rx,0,6,8C,99,4C,99,5C,A2,00,00,
22374960,0000047D,false,Rx,0,6,8C,9F,0C,A0,0C,9F,00,00,
22375975,000007ED,false,Rx,0,8,CC,C3,00,00,00,00,00,DF,
22379621,0000046E,false,Rx,0,6,8C,A1,4C,A1,5C,A9,00,00,
22380429,0000047E,false,Rx,0,6,8C,A8,0C,A8,0C,A8,00,00,
22381455,000007EE,false,Rx,0,8,C0,00,00,00,00,00,00,11,
22396447,00000200,false,Rx,0,3,52,C0,00,00,00,00,00,00,
22494302,00000460,false,Rx,0,6,8B,0E,AB,0D,DB,16,00,00,
22495080,00000470,false,Rx,0,6,8B,16,0B,17,0B,17,00,00,
22496094,000007E0,false,Rx,0,8,4C,B0,00,00,00,00,00,BD,
22500697,00000461,false,Rx,0,8,8B,09,AB,0A,DB,12,0B,15,
22501587,00000471,false,Rx,0,8,8B,13,0B,13,0B,13,0B,13,
22502593,00000300,false,Rx,0,8,00,00,00,00,00,00,00,00,
22503555,000007E1,false,Rx,0,8,4C,A4,00,00,00,00,00,B2,
22504338,00000310,false,Rx,0,5,00,00,00,00,00,00,00,00,
22510987,00000463,false,Rx,0,8,8B,10,AB,12,DB,1A,0B,1C,
22511887,00000473,false,Rx,0,8,8B,1B,0B,1B,0B,1D,0B,1A,
22512882,000007E3,false,Rx,0,8,40,00,00,00,00,00,00,04,
22515804,00000464,false,Rx,0,8,8C,C6,AC,C6,DC,D4,0C,D4,
22516704,00000474,false,Rx,0,8,8C,D4,0C,D5,0C,D3,0C,D2,
22517689,000007E4,false,Rx,0,8,4C,B4,00,00,00,00,00,C5,
22526026,00000466,false,Rx,0,8,8C,6E,AC,6E,DC,79,0C,79,
22526945,00000476,false,Rx,0,8,8C,79,0C,7A,0C,7A,0C,78,
22527931,000007E6,false,Rx,0,8,40,00,00,00,00,00,00,07,
22550517,00000468,false,Rx,0,8,8C,A3,AC,A4,DC,A9,0C,AA,
22551447,00000478,false,Rx,0,8,8C,AA,0C,A8,0C,AA,0C,AB,
22552411,000007E8,false,Rx,0,8,4C,92,00,00,00,00,00,A7,
22561186,0000046A,false,Rx,0,8,8C,AF,AC,B3,DC,B6,0C,B9,
22562086,0000047A,false,Rx,0,8,8C,B7,0C,B9,0C,B6,0C,BA,
22563071,000007EA,false,Rx,0,8,40,00,00,00,00,00,00,0B,
22570029,0000046C,false,Rx,0,6,8B,11,AB,12,DB,1B,00,00,
22570826,0000047C,false,Rx,0,6,8B,1B,0B,1C,0B,1C,00,00,
22571832,000007EC,false,Rx,0,8,4C,BB,00,00,00,00,00,D4,
22574194,0000046D,false,Rx,0,6,8C,99,AC,98,DC,A0,00,00,
22575002,0000047D,false,Rx,0,6,8C,A0,0C,A0,0C,9F,00,00,
22575997,000007ED,false,Rx,0,8,4C,C3,00,00,00,00,00,DD,
22579652,0000046E,false,Rx,0,6,8C,A1,AC,A2,DC,AA,00,00,
22580450,0000047E,false,Rx,0,6,8C,A9,0C,A9,0C,A8,00,00,
22581475,000007EE,false,Rx,0,8,40,00,00,00,00,00,00,0F,
22596447,00000200,false,Rx,0,3,D2,F3,00,00,00,00,00,00,
22694299,00000460,false,Rx,0,6,8B,0E,8B,0D,3B,15,00,00,
22695087,00000470,false,Rx,0,6,8B,17,0B,17,0B,17,00,00,
22696111,000007E0,false,Rx,0,8,CC,B0,00,00,00,00,00,BF,
22700714,00000461,false,Rx,0,8,8B,09,8B,09,3B,10,0B,12,
22701604,00000471,false,Rx,0,8,8B,12,0B,13,0B,13,0B,13,
22702619,00000300,false,Rx,0,8,00,00,00,00,00,00,00,00,
22703592,000007E1,false,Rx,0,8,CC,A4,00,00,00,00,00,B4,
22704374,00000310,false,Rx,0,5,00,00,00,00,00,00,00,00,
22710994,00000463,false,Rx,0,8,8B,0E,8B,11,3B,1C,0B,1A,
22711903,00000473,false,Rx,0,8,8B,1C,0B,1C,0B,1A,0B,1C,
22712897,000007E3,false,Rx,0,8,C0,00,00,00,00,00,00,06,
22715820,00000464,false,Rx,0,8,8C,C5,8C,C7,3C,D5,0C,D3,
22716729,00000474,false,Rx,0,8,8C,D3,0C,D6,0C,D4,0C,D2,
22717695,000007E4,false,Rx,0,8,CC,B5,00,00,00,00,00,C8,
22726040,00000466,false,Rx,0,8,8C,6E,8C,6D,3C,77,0C,77,
22726940,00000476,false,Rx,0,8,8C,78,0C,77,0C,78,0C,79,
22727944,000007E6,false,Rx,0,8,C0,00,00,00,00,00,00,09,
22750543,00000468,false,Rx,0,8,8C,A2,8C,A4,3C,AA,0C,AA,
22751454,00000478,false,Rx,0,8,8C,AA,0C,A9,0C,AA,0C,AB,
22752418,000007E8,false,Rx,0,8,CC,92,00,00,00,00,00,A9,
22761171,0000046A,false,Rx,0,8,8C,B1,8C,B2,3C,B7,0C,B9,
22762081,0000047A,false,Rx,0,8,8C,B6,0C,B9,0C,B6,0C,B9,
22763067,000007EA,false,Rx,0,8,C0,00,00,00,00,00,00,0D,
22770046,0000046C,false,Rx,0,6,8B,10,8B,11,3B,1B,00,00,
22770823,0000047C,false,Rx,0,6,8B,1B,0B,1B,0B,1C,00,00,
22771847,000007EC,false,Rx,0,8,CC,BB,00,00,00,00,00,D6,
22774188,0000046D,false,Rx,0,6,8C,99,8C,97,3C,A1,00,00,
22774986,0000047D,false,Rx,0,6,8C,9F,0C,A1,0C,A0,00,00,
22775980,000007ED,false,Rx,0,8,CC,C2,00,00,00,00,00,DE,
22779665,0000046E,false,Rx,0,6,8C,A1,8C,A2,3C,A9,00,00,
22780451,0000047E,false,Rx,0,6,8C,A7,0C,A8,0C,A9,00,00,
22781486,000007EE,false,Rx,0,8,C0,00,00,00,00,00,00,11,
22796468,00000200,false,Rx,0,3,52,05,00,00,00,00,00,00,
22894270,00000460,false,Rx,0,6,8B,0E,4B,0E,CB,14,00,00,
22895068,00000470,false,Rx,0,6,8B,16,0B,16,0B,17,00,00,
22896103,000007E0,false,Rx,0,8,4C,B1,00,00,00,00,00,BE,
22900695,00000461,false,Rx,0,8,8B,09,4B,09,CB,10,0B,12,
22901595,00000471,false,Rx,0,8,8B,10,0B,11,0B,11,0B,11,
22902599,00000300,false,Rx,0,8,00,00,00,00,00,00,00,00,
22903563,000007E1,false,Rx,0,8,4C,A4,00,00,00,00,00,B2,
22904345,00000310,false,Rx,0,5,00,00,00,00,00,00,00,00,
22910965,00000463,false,Rx,0,8,8B,0F,4B,10,CB,1D,0B,1A,
22911865,00000473,false,Rx,0,8,8B,1B,0B,1D,0B,1A,0B,1C,
22912850,000007E3,false,Rx,0,8,40,00,00,00,00,00,00,04,
22915793,00000464,false,Rx,0,8,8C,C5,4C,C7,CC,D5,0C,D4,
22916703,00000474,false,Rx,0,8,8C,D4,0C,D4,0C,D3,0C,D3,
22917678,000007E4,false,Rx,0,8,4C,B4,00,00,00,00,00,C5,
22926044,00000466,false,Rx,0,8,8C,70,4C,6F,CC,79,0C,79,
22926963,00000476,false,Rx,0,8,8C,78,0C,78,0C,78,0C,78,
22927948,000007E6,false,Rx,0,8,40,00,00,00,00,00,00,07,
22950517,00000468,false,Rx,0,8,8C,A2,4C,A3,CC,AA,0C,A9,
22951457,00000478,false,Rx,0,8,8C,A8,0C,A8,0C,AA,0C,AB,
22952421,000007E8,false,Rx,0,8,4C,92,00,00,00,00,00,A7,
22961165,0000046A,false,Rx,0,8,8C,B2,4C,B1,CC,B8,0C,B8,
22962055,0000047A,false,Rx,0,8,8C,B7,0C,B9,0C,B5,0C,B8,
22963039,000007EA,false,Rx,0,8,40,00,00,00,00,00,00,0B,
22970019,0000046C,false,Rx,0,6,8B,11,4B,12,CB,1C,00,00,
22970796,0000047C,false,Rx,0,6,8B,1B,0B,1B,0B,1C,00,00,
22971820,000007EC,false,Rx,0,8,4C,BA,00,00,00,00,00,D3,
22974182,0000046D,false,Rx,0,6,8C,99,4C,98,CC,A1,00,00,
22974990,0000047D,false,Rx,0,6,8C,A0,0C,9F,0C,A0,00,00,
22975984,000007ED,false,Rx,0,8,4C,C3,00,00,00,00,00,DD,
22979669,0000046E,false,Rx,0,6,8C,A1,4C,A2,CC,A8,00,00,
22980477,0000047E,false,Rx,0,6,8C,A8,0C,A8,0C,A8,00,00,
22981482,000007EE,false,Rx,0,8,40,00,00,00,00,00,00,0F,
22996483,00000200,false,Rx,0,3,D2,36,00,00,00,00,00,00,
23094313,00000460,false,Rx,0,6,8B,0E,1B,0D,BB,15,00,00,
23095101,00000470,false,Rx,0,6,8B,17,0B,16,0B,17,00,00,
23096115,000007E0,false,Rx,0,8,CC,B0,00,00,00,00,00,BF,
23100718,00000461,false,Rx,0,8,8B,0A,1B,0A,BB,12,0B,14,
23101629,00000471,false,Rx,0,8,8B,14,0B,13,0B,12,0B,14,
23102634,00000300,false,Rx,0,8,00,00,00,00,00,00,00,00,
23103607,000007E1,false,Rx,0,8,CC,A4,00,00,00,00,00,B4,
23104389,00000310,false,Rx,0,5,00,00,00,00,00,00,00,00,
23110990,00000463,false,Rx,0,8,8B,0F,1B,11,BB,1D,0B,1A,
23111879,00000473,false,Rx,0,8,8B,1B,0B,1D,0B,1B,0B,1A,
23112874,000007E3,false,Rx,0,8,C0,00,00,00,00,00,00,06,
23115806,00000464,false,Rx,0,8,8C,C5,1C,C6,BC,D5,0C,D4,
23116705,00000474,false,Rx,0,8,8C,D3,0C,D5,0C,D3,0C,D3,
23117670,000007E4,false,Rx,0,8,CC,B4,00,00,00,00,00,C7,
23126056,00000466,false,Rx,0,8,8C,6E,1C,6F,BC,7A,0C,79,
23126955,00000476,false,Rx,0,8,8C,77,0C,76,0C,79,0C,78,
23127950,000007E6,false,Rx,0,8,C0,00,00,00,00,00,00,09,
23150518,00000468,false,Rx,0,8,8C,A3,1C,A4,BC,A9,0C,AA,
23151437,00000478,false,Rx,0,8,8C,A9,0C,A8,0C,AA,0C,AB,
23152403,000007E8,false,Rx,0,8,CC,92,00,00,00,00,00,A9,
23161197,0000046A,false,Rx,0,8,8C,B1,1C,B3,BC,B6,0C,B9,
23162097,0000047A,false,Rx,0,8,8C,B8,0C,B6,0C,B9,0C,B6,
23163092,000007EA,false,Rx,0,8,C0,00,00,00,00,00,00,0D,
23170061,0000046C,false,Rx,0,6,8B,10,1B,12,BB,1B,00,00,
23170858,0000047C,false,Rx,0,6,8B,1C,0B,1C,0B,1C,00,00,
23171852,000007EC,false,Rx,0,8,CC,BB,00,00,00,00,00,D6,
23174213,0000046D,false,Rx,0,6,8C,99,1C,97,BC,A2,00,00,
23175011,0000047D,false,Rx,0,6,8C,9F,0C,A1,0C,A0,00,00,
23176015,000007ED,false,Rx,0,8,CC,C3,00,00,00,00,00,DF,
23179659,0000046E,false,Rx,0,6,8C,A1,1C,A2,BC,A9,00,00,
23180467,0000047E,false,Rx,0,6,8C,A8,0C,A8,0C,A8,00,00,
23181492,000007EE,false,Rx,0,8,C0,00,00,00,00,00,00,11,
23196484,00000200,false,Rx,0,3,52,59,00,00,00,00,00,00,
23294322,00000460,false,Rx,0,6,8B,0D,6B,0E,FB,16,00,00,
23295111,00000470,false,Rx,0,6,8B,16,0B,16,0B,17,00,00,
23296116,000007E0,false,Rx,0,8,4C,B0,00,00,00,00,00,BD,
23300719,00000461,false,Rx,0,8,8B,08,6B,08,FB,10,0B,13,
23301629,00000471,false,Rx,0,8,8B,12,0B,13,0B,13,0B,14,
23302634,00000300,false,Rx,0,8,00,00,00,00,00,00,00,00,
23303596,000007E1,false,Rx,0,8,4C,A4,00,00,00,00,00,B2,
23304380,00000310,false,Rx,0,5,00,00,00,00,00,00,00,00,
23311029,00000463,false,Rx,0,8,8B,10,6B,10,FB,1C,0B,1C,
23311928,00000473,false,Rx,0,8,8B,19,0B,1B,0B,1C,0B,1A,
23312914,000007E3,false,Rx,0,8,40,00,00,00,00,00,00,04,
23315824,00000464,false,Rx,0,8,8C,C5,6C,C7,FC,D4,0C,D4,
23316735,00000474,false,Rx,0,8,8C,D5,0C,D5,0C,D3,0C,D3,
23317720,000007E4,false,Rx,0,8,4C,B4,00,00,00,00,00,C5,
23326057,00000466,false,Rx,0,8,8C,6E,6C,6D,FC,79,0C,7A,
23326976,00000476,false,Rx,0,8,8C,7A,0C,78,0C,78,0C,76,
23327960,000007E6,false,Rx,0,8,40,00,00,00,00,00,00,07,
23350549,00000468,false,Rx,0,8,8C,A2,6C,A4,FC,AA,0C,AA,
23351458,00000478,false,Rx,0,8,8C,A9,0C,A8,0C,AA,0C,AB,
23352423,000007E8,false,Rx,0,8,4C,92,00,00,00,00,00,A7,
23361186,0000046A,false,Rx,0,8,8C,AF,6C,B4,FC,B7,0C,B9,
23362097,0000047A,false,Rx,0,8,8C,B8,0C,B6,0C,B9,0C,B6,
23363072,000007EA,false,Rx,0,8,40,00,00,00,00,00,00,0B,
23370071,0000046C,false,Rx,0,6,8B,10,6B,12,FB,1B,00,00,
23370858,0000047C,false,Rx,0,6,8B,1B,0B,1C,0B,1C,00,00,
23371852,000007EC,false,Rx,0,8,4C,BB,00,00,00,00,00,D4,
23374223,0000046D,false,Rx,0,6,8C,98,6C,99,FC,A1,00,00,
23375033,0000047D,false,Rx,0,6,8C,A0,0C,9F,0C,9F,00,00,
23376017,000007ED,false,Rx,0,8,4C,C3,00,00,00,00,00,DD,
23379671,0000046E,false,Rx,0,6,8C,A2,6C,A2,FC,A9,00,00,
23380469,0000047E,false,Rx,0,6,8C,A9,0C,A8,0C,A8,00,00,
23381494,000007EE,false,Rx,0,8,40,00,00,00,00,00,00,0F,
23396504,00000200,false,Rx,0,3,D2,6D,00,00,00,00,00,00,
23494359,00000460,false,Rx,0,6,8B,0E,0B,0D,BB,16,00,00,
23495137,00000470,false,Rx,0,6,8B,16,0B,16,0B,17,00,00,
23496151,000007E0,false,Rx,0,8,CC,B0,00,00,00,00,00,BF,
23500764,00000461,false,Rx,0,8,8B,08,0B,08,BB,10,0B,13,
23501674,00000471,false,Rx,0,8,8B,12,0B,13,0B,12,0B,14,
23502690,00000300,false,Rx,0,8,00,00,00,00,00,00,00,00,
23503663,000007E1,false,Rx,0,8,CC,A4,00,00,00,00,00,B4,
23504445,00000310,false,Rx,0,5,00,00,00,00,00,00,00,00,
23511026,00000463,false,Rx,0,8,8B,11,0B,11,BB,1A,0B,1B,
23511924,00000473,false,Rx,0,8,8B,1B,0B,1B,0B,1A,0B,1B,
23512919,000007E3,false,Rx,0,8,C0,00,00,00,00,00,00,06,
23515861,00000464,false,Rx,0,8,8C,C6,0C,C6,BC,D4,0C,D4,
23516761,00000474,false,Rx,0,8,8C,D4,0C,D5,0C,D3,0C,D2,
23517736,000007E4,false,Rx,0,8,CC,B5,00,00,00,00,00,C8,
23526092,00000466,false,Rx,0,8,8C,6E,0C,6D,BC,79,0C,7A,
23527002,00000476,false,Rx,0,8,8C,79,0C,79,0C,78,0C,77,
23528008,000007E6,false,Rx,0,8,C0,00,00,00,00,00,00,09,
23550571,00000468,false,Rx,0,8,8C,A2,0C,A4,BC,A9,0C,AA,
23551490,00000478,false,Rx,0,8,8C,AA,0C,A8,0C,AA,0C,AB,
23552466,000007E8,false,Rx,0,8,CC,92,00,00,00,00,00,A9,
23561219,0000046A,false,Rx,0,8,8C,B3,0C,B1,BC,B9,0C,B8,
23562129,0000047A,false,Rx,0,8,8C,B8,0C,B7,0C,B8,0C,B7,
23563123,000007EA,false,Rx,0,8,C0,00,00,00,00,00,00,0D,
23570093,0000046C,false,Rx,0,6,8B,10,0B,12,BB,1B,00,00,
23570881,0000047C,false,Rx,0,6,8B,1B,0B,1C,0B,1C,00,00,
23571875,000007EC,false,Rx,0,8,CC,BB,00,00,00,00,00,D6,
23574236,0000046D,false,Rx,0,6,8C,99,0C,98,BC,A1,00,00,
23575044,0000047D,false,Rx,0,6,8C,A0,0C,9F,0C,9F,00,00,
23576059,000007ED,false,Rx,0,8,CC,C3,00,00,00,00,00,DF,
23579693,0000046E,false,Rx,0,6,8C,A1,0C,A3,BC,A8,00,00,
23580501,0000047E,false,Rx,0,6,8C,A8,0C,A8,0C,A9,00,00,
23581525,000007EE,false,Rx,0,8,C0,00,00,00,00,00,00,11,
23596518,00000200,false,Rx,0,3,52,9C,00,00,00,00,00,00,
23694362,00000460,false,Rx,0,6,8B,0E,9B,0D,4B,16,00,00,
23695150,00000470,false,Rx,0,6,8B,17,0B,16,0B,18,00,00,
23696166,000007E0,false,Rx,0,8,4C,B0,00,00,00,00,00,BD,
23700758,00000461,false,Rx,0,8,8B,0A,9B,0A,4B,11,0B,12,
23701658,00000471,false,Rx,0,8,8B,10,0B,11,0B,11,0B,12,
23702663,00000300,false,Rx,0,8,00,00,00,00,00,00,00,00,
23703626,000007E1,false,Rx,0,8,4C,A4,00,00,00,00,00,B2,
23704409,00000310,false,Rx,0,5,00,00,00,00,00,00,00,00,
23711050,00000463,false,Rx,0,8,8B,0F,9B,12,4B,1B,0B,1A,
23711948,00000473,false,Rx,0,8,8B,1A,0B,1D,0B,1D,0B,1B,
23712943,000007E3,false,Rx,0,8,40,00,00,00,00,00,00,04,
23715855,00000464,false,Rx,0,8,8C,C4,9C,C6,4C,D5,0C,D4,
23716775,00000474,false,Rx,0,8,8C,D4,0C,D5,0C,D3,0C,D3,
23717750,000007E4,false,Rx,0,8,4C,B4,00,00,00,00,00,C5,
23726117,00000466,false,Rx,0,8,8C,6F,9C,70,4C,7A,0C,7B,
23727017,00000476,false,Rx,0,8,8C,79,0C,79,0C,79,0C,78,
23728001,000007E6,false,Rx,0,8,40,00,00,00,00,00,00,07,
23750589,00000468,false,Rx,0,8,8C,A3,9C,A4,4C,A9,0C,AB,
23751489,00000478,false,Rx,0,8,8C,A9,0C,A9,0C,AA,0C,AB,
23752463,000007E8,false,Rx,0,8,4C,92,00,00,00,00,00,A7,
23761246,0000046A,false,Rx,0,8,8C,B0,9C,B2,4C,B7,0C,B8,
23762138,0000047A,false,Rx,0,8,8C,B7,0C,B8,0C,B7,0C,B7,
23763122,000007EA,false,Rx,0,8,40,00,00,00,00,00,00,0B,
23770102,0000046C,false,Rx,0,6,8B,10,9B,11,4B,1B,00,00,
23770889,0000047C,false,Rx,0,6,8B,1B,0B,1C,0B,1C,00,00,
23771903,000007EC,false,Rx,0,8,4C,BB,00,00,00,00,00,D4,
23774264,0000046D,false,Rx,0,6,8C,98,9C,98,4C,A1,00,00,
23775062,0000047D,false,Rx,0,6,8C,A0,0C,A0,0C,9F,00,00,
23776057,000007ED,false,Rx,0,8,4C,C3,00,00,00,00,00,DD,
23779722,0000046E,false,Rx,0,6,8C,A1,9C,A2,4C,A9,00,00,
23780517,0000047E,false,Rx,0,6,8C,A8,0C,A9,0C,A8,00,00,
23781543,000007EE,false,Rx,0,8,40,00,00,00,00,00,00,0F,
23796545,00000200,false,Rx,0,3,D2,AF,00,00,00,00,00,00,
23894378,00000460,false,Rx,0,6,8B,0E,4B,0E,5B,15,00,00,
23895175,00000470,false,Rx,0,6,8B,16,0B,15,0B,17,00,00,
23896200,000007E0,false,Rx,0,8,CC,B0,00,00,00,00,00,BF,
23900793,00000461,false,Rx,0,8,8B,0A,4B,0B,5B,12,0B,14,
23901683,00000471,false,Rx,0,8,8B,12,0B,13,0B,11,0B,13,
23902688,00000300,false,Rx,0,8,00,00,00,00,00,00,00,00,
23903671,000007E1,false,Rx,0,8,CC,A4,00,00,00,00,00,B4,
23904454,00000310,false,Rx,0,5,00,00,00,00,00,00,00,00,
23911072,00000463,false,Rx,0,8,8B,0F,4B,12,5B,1A,0B,1C,
23911984,00000473,false,Rx,0,8,8B,1C,0B,1B,0B,1C,0B,1B,
23912977,000007E3,false,Rx,0,8,C0,00,00,00,00,00,00,06,
23915889,00000464,false,Rx,0,8,8C,C5,4C,C6,5C,D4,0C,D4,
23916789,00000474,false,Rx,0,8,8C,D5,0C,D5,0C,D3,0C,D2,
23917754,000007E4,false,Rx,0,8,CC,B4,00,00,00,00,00,C7,
23926130,00000466,false,Rx,0,8,8C,6E,4C,6E,5C,78,0C,78,
23927030,00000476,false,Rx,0,8,8C,77,0C,77,0C,76,0C,76,
23928027,000007E6,false,Rx,0,8,C0,00,00,00,00,00,00,09,
23950626,00000468,false,Rx,0,8,8C,A3,4C,A3,5C,AA,0C,AA,
23951546,00000478,false,Rx,0,8,8C,AA,0C,A8,0C,AA,0C,AB,
23952520,000007E8,false,Rx,0,8,CC,92,00,00,00,00,00,A9,
23961254,0000046A,false,Rx,0,8,8C,B1,4C,B2,5C,B7,0C,B9,
23962174,0000047A,false,Rx,0,8,8C,B6,0C,B9,0C,B6,0C,B8,
23963169,000007EA,false,Rx,0,8,C0,00,00,00,00,00,00,0D,
23970128,0000046C,false,Rx,0,6,8B,10,4B,11,5B,1B,00,00,
23970905,0000047C,false,Rx,0,6,8B,1B,0B,1B,0B,1C,00,00,
23971921,000007EC,false,Rx,0,8,CC,BB,00,00,00,00,00,D6,
23974252,0000046D,false,Rx,0,6,8C,9A,4C,97,5C,A2,00,00,
23975051,0000047D,false,Rx,0,6,8C,9F,0C,A1,0C,9F,00,00,
23976066,000007ED,false,Rx,0,8,CC,C3,00,00,00,00,00,DF,
23979741,0000046E,false,Rx,0,6,8C,A2,4C,A3,5C,A9,00,00,
23980539,0000047E,false,Rx,0,6,8C,A8,0C,A8,0C,A9,00,00,
23981564,000007EE,false,Rx,0,8,C0,00,00,00,00,00,00,11,
23996556,00000200,false,Rx,0,3,52,C0,00,00,00,00,00,00,
24094407,00000460,false,Rx,0,6,8B,0E,AB,0D,DB,15,00,00,
24095194,00000470,false,Rx,0,6,8B,16,0B,16,0B,17,00,00,
24096210,000007E0,false,Rx,0,8,4C,B0,00,00,00,00,00,BD,
24100812,00000461,false,Rx,0,8,8B,09,AB,0A,DB,12,0B,14,
24101711,00000471,false,Rx,0,8,8B,13,0B,13,0B,12,0B,13,
24102716,00000300,false,Rx,0,8,00,00,00,00,00,00,00,00,
24103679,000007E1,false,Rx,0,8,4C,A4,00,00,00,00,00,B2,
24104461,00000310,false,Rx,0,5,00,00,00,00,00,00,00,00,
24111092,00000463,false,Rx,0,8,8B,10,AB,10,DB,1D,0B,1A,
24112001,00000473,false,Rx,0,8,8B,1B,0B,1C,0B,1A,0B,1C,
24112996,000007E3,false,Rx,0,8,40,00,00,00,00,00,00,04,
24115907,00000464,false,Rx,0,8,8C,C5,AC,C6,DC,D5,0C,D4,
24116817,00000474,false,Rx,0,8,8C,D4,0C,D5,0C,D3,0C,D3,
24117792,000007E4,false,Rx,0,8,4C,B4,00,00,00,00,00,C5,
24126159,00000466,false,Rx,0,8,8C,70,AC,6F,DC,77,0C,78,
24127059,00000476,false,Rx,0,8,8C,78,0C,79,0C,79,0C,77,
24128044,000007E6,false,Rx,0,8,40,00,00,00,00,00,00,07,
24150630,00000468,false,Rx,0,8,8C,A3,AC,A3,DC,A9,0C,AA,
24151562,00000478,false,Rx,0,8,8C,AA,0C,A8,0C,AA,0C,AB,
24152526,000007E8,false,Rx,0,8,4C,92,00,00,00,00,00,A7,
24161299,0000046A,false,Rx,0,8,8C,AF,AC,B2,DC,B8,0C,B7,
24162189,0000047A,false,Rx,0,8,8C,B8,0C,B7,0C,B7,0C,B9,
24163174,000007EA,false,Rx,0,8,40,00,00,00,00,00,00,0B,
24170142,0000046C,false,Rx,0,6,8B,10,AB,11,DB,1B,00,00,
24170939,0000047C,false,Rx,0,6,8B,1B,0B,1C,0B,1C,00,00,
24171954,000007EC,false,Rx,0,8,4C,BB,00,00,00,00,00,D4,
24174274,0000046D,false,Rx,0,6,8C,99,AC,98,DC,A1,00,00,
24175082,0000047D,false,Rx,0,6,8C,A0,0C,A0,0C,9F,00,00,
24176078,000007ED,false,Rx,0,8,4C,C2,00,00,00,00,00,DC,
24179762,0000046E,false,Rx,0,6,8C,A1,AC,A2,DC,A9,00,00,
24180571,0000047E,false,Rx,0,6,8C,A8,0C,A8,0C,A7,00,00,
24181587,000007EE,false,Rx,0,8,40,00,00,00,00,00,00,0F,
24196568,00000200,false,Rx,0,3,D2,F3,00,00,00,00,00,00,
24294418,00000460,false,Rx,0,6,8B,0E,8B,0E,3B,16,00,00,
24295226,00000470,false,Rx,0,6,8B,17,0B,16,0B,17,00,00,
24296240,000007E0,false,Rx,0,8,CC,B0,00,00,00,00,00,BF,
24300843,00000461,false,Rx,0,8,8B,08,8B,08,3B,10,0B,12,
24301742,00000471,false,Rx,0,8,8B,11,0B,12,0B,11,0B,12,
24302757,00000300,false,Rx,0,8,00,00,00,00,00,00,00,00,
24303731,000007E1,false,Rx,0,8,CC,A4,00,00,00,00,00,B4,
24304513,00000310,false,Rx,0,5,00,00,00,00,00,00,00,00,
24311124,00000463,false,Rx,0,8,8B,12,8B,10,3B,1C,0B,1C,
24312024,00000473,false,Rx,0,8,8B,1A,0B,1D,0B,1B,0B,1A,
24313019,000007E3,false,Rx,0,8,C0,00,00,00,00,00,00,06,
24315940,00000464,false,Rx,0,8,8C,C5,8C,C7,3C,D5,0C,D4,
24316850,00000474,false,Rx,0,8,8C,D4,0C,D4,0C,D3,0C,D3,
24317814,000007E4,false,Rx,0,8,CC,B4,00,00,00,00,00,C7,
24326181,00000466,false,Rx,0,8,8C,6F,8C,70,3C,7B,0C,79,
24327081,00000476,false,Rx,0,8,8C,77,0C,77,0C,76,0C,77,
24328086,000007E6,false,Rx,0,8,C0,00,00,00,00,00,00,09,
24350644,00000468,false,Rx,0,8,8C,A2,8C,A3,3C,A9,0C,AA,
24351575,00000478,false,Rx,0,8,8C,AA,0C,A8,0C,AA,0C,AB,
24352539,000007E8,false,Rx,0,8,CC,92,00,00,00,00,00,A9,
24361304,0000046A,false,Rx,0,8,8C,AF,8C,B3,3C,B7,0C,B8,
24362223,0000047A,false,Rx,0,8,8C,B8,0C,B6,0C,B8,0C,B8,
24363218,000007EA,false,Rx,0,8,C0,00,00,00,00,00,00,0D,
24370167,0000046C,false,Rx,0,6,8B,10,8B,12,3B,1B,00,00,
24370974,0000047C,false,Rx,0,6,8B,1C,0B,1C,0B,1C,00,00,
24371969,000007EC,false,Rx,0,8,CC,BB,00,00,00,00,00,D6,
24374330,0000046D,false,Rx,0,6,8C,9A,8C,97,3C,A2,00,00,
24375128,0000047D,false,Rx,0,6,8C,9F,0C,A1,0C,9F,00,00,
24376133,000007ED,false,Rx,0,8,CC,C2,00,00,00,00,00,DE,
24379787,0000046E,false,Rx,0,6,8C,A1,8C,A1,3C,A9,00,00,
24380585,0000047E,false,Rx,0,6,8C,A8,0C,A9,0C,A8,00,00,
24381620,000007EE,false,Rx,0,8,C0,00,00,00,00,00,00,11,
24396582,00000200,false,Rx,0,3,52,05,00,00,00,00,00,00,
24494383,00000460,false,Rx,0,6,8B,0E,4B,0D,CB,15,00,00,
24495182,00000470,false,Rx,0,6,8B,17,0B,16,0B,17,00,00,
24496196,000007E0,false,Rx,0,8,4C,B0,00,00,00,00,00,BD,
24500790,00000461,false,Rx,0,8,8B,0A,4B,0A,CB,11,0B,12,
24501691,00000471,false,Rx,0,8,8B,11,0B,11,0B,10,0B,12,
24502695,00000300,false,Rx,0,8,00,00,00,00,00,00,00,00,
24503658,000007E1,false,Rx,0,8,4C,A4,00,00,00,00,00,B2,
24504440,00000310,false,Rx,0,5,00,00,00,00,00,00,00,00,
24511081,00000463,false,Rx,0,8,8B,0F,4B,12,CB,1A,0B,1A,
24511991,00000473,false,Rx,0,8,8B,1C,0B,1A,0B,1C,0B,1D,
24512985,000007E3,false,Rx,0,8,40,00,00,00,00,00,00,04,
24515886,00000464,false,Rx,0,8,8C,C5,4C,C6,CC,D5,0C,D4,
24516796,00000474,false,Rx,0,8,8C,D3,0C,D5,0C,D3,0C,D2,
24517780,000007E4,false,Rx,0,8,4C,B5,00,00,00,00,00,C6,
24526147,00000466,false,Rx,0,8,8C,6F,4C,6F,CC,7A,0C,7A,
24527048,00000476,false,Rx,0,8,8C,79,0C,79,0C,79,0C,78,
24528022,000007E6,false,Rx,0,8,40,00,00,00,00,00,00,07,
24550627,00000468,false,Rx,0,8,8C,A3,4C,A3,CC,AA,0C,A9,
24551557,00000478,false,Rx,0,8,8C,AA,0C,A8,0C,AA,0C,AB,
24552522,000007E8,false,Rx,0,8,4C,92,00,00,00,00,00,A7,
24561276,0000046A,false,Rx,0,8,8C,B1,4C,B2,CC,B6,0C,BA,
24562176,0000047A,false,Rx,0,8,8C,B6,0C,B9,0C,B7,0C,B8,
24563151,000007EA,false,Rx,0,8,40,00,00,00,00,00,00,0B,
24570152,0000046C,false,Rx,0,6,8B,10,4B,12,CB,1B,00,00,
24570928,0000047C,false,Rx,0,6,8B,1B,0B,1C,0B,1C,00,00,
24571942,000007EC,false,Rx,0,8,4C,BB,00,00,00,00,00,D4,
24574314,0000046D,false,Rx,0,6,8C,98,4C,97,CC,A2,00,00,
24575112,0000047D,false,Rx,0,6,8C,A0,0C,9F,0C,9F,00,00,
24576106,000007ED,false,Rx,0,8,4C,C2,00,00,00,00,00,DC,
24579750,0000046E,false,Rx,0,6,8C,A1,4C,A2,CC,A9,00,00,
24580558,0000047E,false,Rx,0,6,8C,A8,0C,A8,0C,A8,00,00,
24581574,000007EE,false,Rx,0,8,40,00,00,00,00,00,00,0F,
24596595,00000200,false,Rx,0,3,D2,36,00,00,00,00,00,00,
24694457,00000460,false,Rx,0,6,8B,0E,1B,0D,BB,16,00,00,
24695235,00000470,false,Rx,0,6,8B,16,0B,16,0B,17,00,00,
24696249,000007E0,false,Rx,0,8,CC,B0,00,00,00,00,00,BF,
24700831,00000461,false,Rx,0,8,8B,0A,1B,0A,BB,11,0B,12,
24701731,00000471,false,Rx,0,8,8B,10,0B,11,0B,11,0B,13,
24702746,00000300,false,Rx,0,8,00,00,00,00,00,00,00,00,
24703720,000007E1,false,Rx,0,8,CC,A4,00,00,00,00,00,B4,
24704502,00000310,false,Rx,0,5,00,00,00,00,00,00,00,00,
24711112,00000463,false,Rx,0,8,8B,0E,1B,11,BB,1C,0B,1A,
24712002,00000473,false,Rx,0,8,8B,1B,0B,1D,0B,1C,0B,1A,
24712997,000007E3,false,Rx,0,8,C0,00,00,00,00,00,00,06,
24715907,00000464,false,Rx,0,8,8C,C5,1C,C6,BC,D5,0C,D4,
24716818,00000474,false,Rx,0,8,8C,D3,0C,D5,0C,D3,0C,D2,
24717782,000007E4,false,Rx,0,8,CC,B4,00,00,00,00,00,C7,
24726159,00000466,false,Rx,0,8,8C,6E,1C,6D,BC,77,0C,77,
24727089,00000476,false,Rx,0,8,8C,76,0C,76,0C,76,0C,77,
24728083,000007E6,false,Rx,0,8,C0,00,00,00,00,00,00,09,
24750650,00000468,false,Rx,0,8,8C,A2,1C,A4,BC,AA,0C,AB,
24751570,00000478,false,Rx,0,8,8C,A9,0C,A8,0C,AA,0C,AC,
24752534,000007E8,false,Rx,0,8,CC,92,00,00,00,00,00,A9,
24761299,0000046A,false,Rx,0,8,8C,B2,1C,B2,BC,B8,0C,B8,
24762219,0000047A,false,Rx,0,8,8C,B7,0C,B8,0C,B6,0C,B8,
24763203,000007EA,false,Rx,0,8,C0,00,00,00,00,00,00,0D,
24770173,0000046C,false,Rx,0,6,8B,10,1B,12,BB,1B,00,00,
24770970,0000047C,false,Rx,0,6,8B,1B,0B,1C,0B,1D,00,00,
24771954,000007EC,false,Rx,0,8,CC,BB,00,00,00,00,00,D6,
24774327,0000046D,false,Rx,0,6,8C,99,1C,97,BC,A1,00,00,
24775135,0000047D,false,Rx,0,6,8C,9F,0C,A0,0C,9F,00,00,
24776119,000007ED,false,Rx,0,8,CC,C2,00,00,00,00,00,DE,
24779784,0000046E,false,Rx,0,6,8C,A2,1C,A2,BC,A9,00,00,
24780570,0000047E,false,Rx,0,6,8C,A8,0C,A9,0C,A8,00,00,
24781604,000007EE,false,Rx,0,8,C0,00,00,00,00,00,00,11,
24796596,00000200,false,Rx,0,3,52,59,00,00,00,00,00,00,
24894439,00000460,false,Rx,0,6,8B,0E,6B,0D,FB,16,00,00,
24895227,00000470,false,Rx,0,6,8B,17,0B,16,0B,17,00,00,
24896231,000007E0,false,Rx,0,8,4C,B0,00,00,00,00,00,BD,
24900844,00000461,false,Rx,0,8,8B,0A,6B,0A,FB,12,0B,14,
24901743,00000471,false,Rx,0,8,8B,12,0B,11,0B,11,0B,11,
24902749,00000300,false,Rx,0,8,00,00,00,00,00,00,00,00,
24903712,000007E1,false,Rx,0,8,4C,A4,00,00,00,00,00,B2,
24904494,00000310,false,Rx,0,5,00,00,00,00,00,00,00,00,
24911135,00000463,false,Rx,0,8,8B,0E,6B,11,FB,1C,0B,1B,
24912045,00000473,false,Rx,0,8,8B,19,0B,1C,0B,1C,0B,1A,
24913029,000007E3,false,Rx,0,8,40,00,00,00,00,00,00,04,
24915940,00000464,false,Rx,0,8,8C,C5,6C,C6,FC,D4,0C,D3,
24916859,00000474,false,Rx,0,8,8C,D3,0C,D4,0C,D3,0C,D2,
24917834,000007E4,false,Rx,0,8,4C,B4,00,00,00,00,00,C5,
24926192,00000466,false,Rx,0,8,8C,6F,6C,70,FC,78,0C,76,
24927091,00000476,false,Rx,0,8,8C,78,0C,79,0C,79,0C,77,
24928077,000007E6,false,Rx,0,8,40,00,00,00,00,00,00,07,
24950653,00000468,false,Rx,0,8,8C,A2,6C,A4,FC,A9,0C,AA,
24951573,00000478,false,Rx,0,8,8C,A9,0C,A8,0C,AA,0C,AB,
24952538,000007E8,false,Rx,0,8,4C,92,00,00,00,00,00,A7,
24961323,0000046A,false,Rx,0,8,8C,B1,6C,B2,FC,B8,0C,B8,
24962233,0000047A,false,Rx,0,8,8C,B8,0C,B7,0C,B8,0C,B8,
24963217,000007EA,false,Rx,0,8,40,00,00,00,00,00,00,0B,
24970197,0000046C,false,Rx,0,6,8B,10,6B,11,FB,1A,00,00,
24970964,0000047C,false,Rx,0,6,8B,1B,0B,1B,0B,1C,00,00,
24971968,000007EC,false,Rx,0,8,4C,BB,00,00,00,00,00,D4,
24974349,0000046D,false,Rx,0,6,8C,9A,6C,98,FC,A0,00,00,
24975147,0000047D,false,Rx,0,6,8C,9F,0C,A0,0C,9F,00,00,
24976131,000007ED,false,Rx,0,8,4C,C3,00,00,00,00,00,DD,
24979795,0000046E,false,Rx,0,6,8C,A1,6C,A2,FC,A9,00,00,
24980584,0000047E,false,Rx,0,6,8C,A9,0C,A8,0C,A7,00,00,
24981598,000007EE,false,Rx,0,8,40,00,00,00,00,00,00,0F,
24996621,00000200,false,Rx,0,3,D2,6D,00,00,00,00,00,00,
25094472,00000460,false,Rx,0,6,8B,0E,0B,0D,BB,16,00,00,
25095260,00000470,false,Rx,0,6,8B,16,0B,16,0B,17,00,00,
25096265,000007E0,false,Rx,0,8,CC,B0,00,00,00,00,00,BF,
25100867,00000461,false,Rx,0,8,8B,09,0B,09,BB,10,0B,12,
25101767,00000471,false,Rx,0,8,8B,10,0B,11,0B,11,0B,12,
25102772,00000300,false,Rx,0,8,00,00,00,00,00,00,00,00,
25103755,000007E1,false,Rx,0,8,CC,A4,00,00,00,00,00,B4,
25104537,00000310,false,Rx,0,5,00,00,00,00,00,00,00,00,
25111148,00000463,false,Rx,0,8,8B,0F,0B,12,BB,1C,0B,1B,
25112068,00000473,false,Rx,0,8,8B,1A,0B,1D,0B,1C,0B,1A,
25113053,000007E3,false,Rx,0,8,C0,00,00,00,00,00,00,06,
25115953,00000464,false,Rx,0,8,8C,C5,0C,C7,BC,D5,0C,D4,
25116852,00000474,false,Rx,0,8,8C,D3,0C,D5,0C,D3,0C,D3,
25117828,000007E4,false,Rx,0,8,CC,B4,00,00,00,00,00,C7,
25126205,00000466,false,Rx,0,8,8C,6D,0C,6D,BC,78,0C,7A,
25127124,00000476,false,Rx,0,8,8C,7A,0C,7A,0C,78,0C,77,
25128119,000007E6,false,Rx,0,8,C0,00,00,00,00,00,00,09,
25150686,00000468,false,Rx,0,8,8C,A3,0C,A4,BC,A9,0C,AA,
25151596,00000478,false,Rx,0,8,8C,A9,0C,A8,0C,AA,0C,AB,
25152560,000007E8,false,Rx,0,8,CC,92,00,00,00,00,00,A9,
25161365,0000046A,false,Rx,0,8,8C,B1,0C,B2,BC,B8,0C,B7,
25162255,0000047A,false,Rx,0,8,8C,B8,0C,B5,0C,B9,0C,B6,
25163250,000007EA,false,Rx,0,8,C0,00,00,00,00,00,00,0D,
25170198,0000046C,false,Rx,0,6,8B,10,0B,11,BB,1B,00,00,
25170975,0000047C,false,Rx,0,6,8B,1B,0B,1B,0B,1C,00,00,
25171990,000007EC,false,Rx,0,8,CC,BB,00,00,00,00,00,D6,
25174360,0000046D,false,Rx,0,6,8C,99,0C,98,BC,A1,00,00,
25175158,0000047D,false,Rx,0,6,8C,9F,0C,A0,0C,9E,00,00,
25176174,000007ED,false,Rx,0,8,CC,C3,00,00,00,00,00,DF,
25179828,0000046E,false,Rx,0,6,8C,A0,0C,A2,BC,A9,00,00,
25180617,0000047E,false,Rx,0,6,8C,A8,0C,A7,0C,A8,00,00,
25181641,000007EE,false,Rx,0,8,C0,00,00,00,00,00,00,11,
25196643,00000200,false,Rx,0,3,52,9C,00,00,00,00,00,00,
25294482,00000460,false,Rx,0,6,8B,0E,9B,0D,4B,16,00,00,
25295270,00000470,false,Rx,0,6,8B,17,0B,17,0B,17,00,00,
25296295,000007E0,false,Rx,0,8,4C,B0,00,00,00,00,00,BD,
25300887,00000461,false,Rx,0,8,8B,09,9B,0A,4B,12,0B,13,
25301807,00000471,false,Rx,0,8,8B,12,0B,12,0B,12,0B,13,
25302823,00000300,false,Rx,0,8,00,00,00,00,00,00,00,00,
25303775,000007E1,false,Rx,0,8,4C,A4,00,00,00,00,00,B2,
25304558,00000310,false,Rx,0,5,00,00,00,00,00,00,00,00,
25311168,00000463,false,Rx,0,8,8B,12,9B,11,4B,1A,0B,1B,
25312078,00000473,false,Rx,0,8,8B,1C,0B,1D,0B,1B,0B,19,
25313062,000007E3,false,Rx,0,8,40,00,00,00,00,00,00,04,
25315984,00000464,false,Rx,0,8,8C,C5,9C,C6,4C,D5,0C,D5,
25316903,00000474,false,Rx,0,8,8C,D4,0C,D4,0C,D3,0C,D3,
25317888,000007E4,false,Rx,0,8,4C,B5,00,00,00,00,00,C6,
25326234,00000466,false,Rx,0,8,8C,70,9C,70,4C,79,0C,78,
25327144,00000476,false,Rx,0,8,8C,77,0C,76,0C,76,0C,76,
25328119,000007E6,false,Rx,0,8,40,00,00,00,00,00,00,07,
25350696,00000468,false,Rx,0,8,8C,A2,9C,A3,4C,A9,0C,AA,
25351627,00000478,false,Rx,0,8,8C,AA,0C,A8,0C,AA,0C,AB,
25352592,000007E8,false,Rx,0,8,4C,92,00,00,00,00,00,A7,
25361366,0000046A,false,Rx,0,8,8C,AF,9C,B3,4C,B7,0C,B7,
25362255,0000047A,false,Rx,0,8,8C,B9,0C,B7,0C,B7,0C,B8,
25363240,000007EA,false,Rx,0,8,40,00,00,00,00,00,00,0B,
25370219,0000046C,false,Rx,0,6,8B,11,9B,11,4B,1B,00,00,
25371007,0000047C,false,Rx,0,6,8B,1B,0B,1B,0B,1C,00,00,
25372022,000007EC,false,Rx,0,8,4C,BB,00,00,00,00,00,D4,
25374393,0000046D,false,Rx,0,6,8C,9A,9C,97,4C,A2,00,00,
25375211,0000047D,false,Rx,0,6,8C,9F,0C,9F,0C,A0,00,00,
25376185,000007ED,false,Rx,0,8,4C,C3,00,00,00,00,00,DD,
25379839,0000046E,false,Rx,0,6,8C,A1,9C,A2,4C,A9,00,00,
25380647,0000047E,false,Rx,0,6,8C,A8,0C,A8,0C,A8,00,00,
25381662,000007EE,false,Rx,0,8,40,00,00,00,00,00,00,0F,
25396654,00000200,false,Rx,0,3,D2,AF,00,00,00,00,00,00,
25494496,00000460,false,Rx,0,6,8B,0F,4B,0D,5B,14,00,00,
25495294,00000470,false,Rx,0,6,8B,16,0B,16,0B,16,00,00,
25496299,000007E0,false,Rx,0,8,CC,B0,00,00,00,00,00,BF,
25500912,00000461,false,Rx,0,8,8B,08,4B,0A,5B,12,0B,14,
25501811,00000471,false,Rx,0,8,8B,12,0B,13,0B,12,0B,13,
25502816,00000300,false,Rx,0,8,00,00,00,00,00,00,00,00,
25503799,000007E1,false,Rx,0,8,CC,A4,00,00,00,00,00,B4,
25504581,00000310,false,Rx,0,5,00,00,00,00,00,00,00,00,
25511172,00000463,false,Rx,0,8,8B,11,4B,0F,5B,1D,0B,1A,
25512082,00000473,false,Rx,0,8,8B,1C,0B,1C,0B,1A,0B,1B,
25513076,000007E3,false,Rx,0,8,C0,00,00,00,00,00,00,06,
25516021,00000464,false,Rx,0,8,8C,C6,4C,C6,5C,D4,0C,D4,
25516929,00000474,false,Rx,0,8,8C,D4,0C,D5,0C,D3,0C,D3,
25517905,000007E4,false,Rx,0,8,CC,B4,00,00,00,00,00,C7,
25526251,00000466,false,Rx,0,8,8C,6E,4C,6D,5C,77,0C,77,
25527152,00000476,false,Rx,0,8,8C,76,0C,77,0C,76,0C,76,
25528157,000007E6,false,Rx,0,8,C0,00,00,00,00,00,00,09,
25550719,00000468,false,Rx,0,8,8C,A3,4C,A3,5C,A9,0C,AA,
25551630,00000478,false,Rx,0,8,8C,A9,0C,A8,0C,AA,0C,AB,
25552594,000007E8,false,Rx,0,8,CC,92,00,00,00,00,00,A9,
25561377,0000046A,false,Rx,0,8,8C,AF,4C,B2,5C,B8,0C,B7,
25562288,0000047A,false,Rx,0,8,8C,B8,0C,B8,0C,B6,0C,B9,
25563284,000007EA,false,Rx,0,8,C0,00,00,00,00,00,00,0D,
25570243,0000046C,false,Rx,0,6,8B,11,4B,12,5B,1B,00,00,
25571031,0000047C,false,Rx,0,6,8B,1B,0B,1C,0B,1C,00,00,
25572036,000007EC,false,Rx,0,8,CC,BB,00,00,00,00,00,D6,
25574396,0000046D,false,Rx,0,6,8C,99,4C,97,5C,A2,00,00,
25575224,0000047D,false,Rx,0,6,8C,9F,0C,9F,0C,A0,00,00,
25576199,000007ED,false,Rx,0,8,CC,C2,00,00,00,00,00,DE,
25579842,0000046E,false,Rx,0,6,8C,A1,4C,A2,5C,A9,00,00,
25580651,0000047E,false,Rx,0,6,8C,A8,0C,A8,0C,A8,00,00,
25581676,000007EE,false,Rx,0,8,C0,00,00,00,00,00,00,11,
25596677,00000200,false,Rx,0,3,52,C0,00,00,00,00,00,00,
25694560,00000460,false,Rx,0,6,8B,0E,AB,0D,DB,15,00,00,
25695348,00000470,false,Rx,0,6,8B,17,0B,16,0B,17,00,00,
25696354,000007E0,false,Rx,0,8,4C,B0,00,00,00,00,00,BD,
25700937,00000461,false,Rx,0,8,8B,09,AB,0A,DB,11,0B,12,
25701836,00000471,false,Rx,0,8,8B,11,0B,10,0B,10,0B,11,
25702852,00000300,false,Rx,0,8,00,00,00,00,00,00,00,00,
25703804,000007E1,false,Rx,0,8,4C,A4,00,00,00,00,00,B2,
25704587,00000310,false,Rx,0,5,00,00,00,00,00,00,00,00,
25711216,00000463,false,Rx,0,8,8B,0E,AB,12,DB,1B,0B,1A,
25712118,00000473,false,Rx,0,8,8B,1C,0B,1B,0B,1C,0B,1C,
25713112,000007E3,false,Rx,0,8,40,00,00,00,00,00,00,04,
25716034,00000464,false,Rx,0,8,8C,C5,AC,C7,DC,D5,0C,D4,
25716953,00000474,false,Rx,0,8,8C,D4,0C,D5,0C,D3,0C,D3,
25717927,000007E4,false,Rx,0,8,4C,B4,00,00,00,00,00,C5,
25726273,00000466,false,Rx,0,8,8C,6E,AC,6D,DC,79,0C,79,
25727173,00000476,false,Rx,0,8,8C,79,0C,77,0C,75,0C,78,
25728158,000007E6,false,Rx,0,8,40,00,00,00,00,00,00,07,
25750755,00000468,false,Rx,0,8,8C,A3,AC,A3,DC,AB,0C,A9,
25751685,00000478,false,Rx,0,8,8C,AA,0C,A8,0C,AA,0C,AB,
25752649,000007E8,false,Rx,0,8,4C,92,00,00,00,00,00,A7,
25761413,0000046A,false,Rx,0,8,8C,B3,AC,B1,DC,B8,0C,B8,
25762323,0000047A,false,Rx,0,8,8C,B6,0C,B9,0C,B6,0C,B8,
25763308,000007EA,false,Rx,0,8,40,00,00,00,00,00,00,0B,
25770267,0000046C,false,Rx,0,6,8B,11,AB,11,DB,1C,00,00,
25771046,0000047C,false,Rx,0,6,8B,1B,0B,1D,0B,1C,00,00,
25772062,000007EC,false,Rx,0,8,4C,BB,00,00,00,00,00,D4,
25774432,0000046D,false,Rx,0,6,8C,99,AC,97,DC,A2,00,00,
25775230,0000047D,false,Rx,0,6,8C,9F,0C,A0,0C,9F,00,00,
25776224,000007ED,false,Rx,0,8,4C,C3,00,00,00,00,00,DD,
25779878,0000046E,false,Rx,0,6,8C,A1,AC,A2,DC,A9,00,00,
25780674,0000047E,false,Rx,0,6,8C,A7,0C,A6,0C,A8,00,00,
25781708,000007EE,false,Rx,0,8,40,00,00,00,00,00,00,0F,
25796680,00000200,false,Rx,0,3,D2,F3,00,00,00,00,00,00,
25894542,00000460,false,Rx,0,6,8B,0F,8B,0D,3B,16,00,00,
25895340,00000470,false,Rx,0,6,8B,17,0B,16,0B,17,00,00,
25896354,000007E0,false,Rx,0,8,CC,B0,00,00,00,00,00,BF,
25900946,00000461,false,Rx,0,8,8B,08,8B,08,3B,11,0B,13,
25901857,00000471,false,Rx,0,8,8B,12,0B,13,0B,12,0B,14,
25902862,00000300,false,Rx,0,8,00,00,00,00,00,00,00,00,
25903844,000007E1,false,Rx,0,8,CC,A4,00,00,00,00,00,B4,
25904627,00000310,false,Rx,0,5,00,00,00,00,00,00,00,00,
25911238,00000463,false,Rx,0,8,8B,0F,8B,10,3B,1C,0B,1A,
25912148,00000473,false,Rx,0,8,8B,1A,0B,1D,0B,1B,0B,1A,
25913132,000007E3,false,Rx,0,8,C0,00,00,00,00,00,00,06,
25916044,00000464,false,Rx,0,8,8C,C5,8C,C7,3C,D5,0C,D4,
25916963,00000474,false,Rx,0,8,8C,D3,0C,D4,0C,D4,0C,D3,
25917928,000007E4,false,Rx,0,8,CC,B4,00,00,00,00,00,C7,
25926285,00000466,false,Rx,0,8,8C,6E,8C,6F,3C,7A,0C,79,
25927186,00000476,false,Rx,0,8,8C,76,0C,77,0C,77,0C,79,
25928180,000007E6,false,Rx,0,8,C0,00,00,00,00,00,00,09,
25950768,00000468,false,Rx,0,8,8C,A2,8C,A4,3C,AA,0C,A9,
25951679,00000478,false,Rx,0,8,8C,AB,0C,A8,0C,AA,0C,AB,
25952653,000007E8,false,Rx,0,8,CC,92,00,00,00,00,00,A9,
25961407,0000046A,false,Rx,0,8,8C,B1,8C,B2,3C,B7,0C,B7,
25962306,0000047A,false,Rx,0,8,8C,B8,0C,B5,0C,B9,0C,B6,
25963302,000007EA,false,Rx,0,8,C0,00,00,00,00,00,00,0D,
25970272,0000046C,false,Rx,0,6,8B,11,8B,11,3B,1A,00,00,
25971070,0000047C,false,Rx,0,6,8B,19,0B,1B,0B,1B,00,00,
25972074,000007EC,false,Rx,0,8,CC,BB,00,00,00,00,00,D6,
25974424,0000046D,false,Rx,0,6,8C,99,8C,98,3C,A1,00,00,
25975222,0000047D,false,Rx,0,6,8C,A0,0C,9F,0C,A0,00,00,
25976216,000007ED,false,Rx,0,8,CC,C2,00,00,00,00,00,DE,
25979921,0000046E,false,Rx,0,6,8C,A1,8C,A2,3C,A9,00,00,
25980710,0000047E,false,Rx,0,6,8C,A9,0C,A8,0C,A9,00,00,
25981745,000007EE,false,Rx,0,8,C0,00,00,00,00,00,00,11,
25996706,00000200,false,Rx,0,3,52,05,00,00,00,00,00,00,
26094503,00000460,false,Rx,0,6,8B,0F,4B,0D,CB,15,00,00,
26095293,00000470,false,Rx,0,6,8B,17,0B,17,0B,17,00,00,
26096317,000007E0,false,Rx,0,8,4C,B0,00,00,00,00,00,BD,
26100919,00000461,false,Rx,0,8,8B,08,4B,09,CB,11,0B,13,
26101829,00000471,false,Rx,0,8,8B,12,0B,13,0B,12,0B,14,
26102834,00000300,false,Rx,0,8,00,00,00,00,00,00,00,00,
26103798,000007E1,false,Rx,0,8,4C,A4,00,00,00,00,00,B2,
26104580,00000310,false,Rx,0,5,00,00,00,00,00,00,00,00,
26111210,00000463,false,Rx,0,8,8B,11,4B,11,CB,1A,0B,1C,
26112120,00000473,false,Rx,0,8,8B,1C,0B,1A,0B,1B,0B,1C,
26113105,000007E3,false,Rx,0,8,40,00,00,00,00,00,00,04,
26116027,00000464,false,Rx,0,8,8C,C6,4C,C6,CC,D4,0C,D4,
26116936,00000474,false,Rx,0,8,8C,D4,0C,D5,0C,D3,0C,D3,
26117910,000007E4,false,Rx,0,8,4C,B4,00,00,00,00,00,C5,
26126257,00000466,false,Rx,0,8,8C,6F,4C,70,CC,79,0C,77,
26127157,00000476,false,Rx,0,8,8C,75,0C,77,0C,79,0C,79,
26128141,000007E6,false,Rx,0,8,40,00,00,00,00,00,00,07,
26150750,00000468,false,Rx,0,8,8C,A2,4C,A4,CC,AA,0C,AA,
26151690,00000478,false,Rx,0,8,8C,A8,0C,A8,0C,AA,0C,AB,
26152654,000007E8,false,Rx,0,8,4C,92,00,00,00,00,00,A7,
26161388,0000046A,false,Rx,0,8,8C,B0,4C,B2,CC,B7,0C,B8,
26162287,0000047A,false,Rx,0,8,8C,B7,0C,B8,0C,B7,0C,B8,
26163272,000007EA,false,Rx,0,8,40,00,00,00,00,00,00,0B,
26170271,0000046C,false,Rx,0,6,8B,10,4B,12,CB,1B,00,00,
26171049,0000047C,false,Rx,0,6,8B,1B,0B,1C,0B,1C,00,00,
26172063,000007EC,false,Rx,0,8,4C,BB,00,00,00,00,00,D4,
26174413,0000046D,false,Rx,0,6,8C,98,4C,98,CC,A1,00,00,
26175211,0000047D,false,Rx,0,6,8C,A0,0C,A0,0C,9F,00,00,
26176226,000007ED,false,Rx,0,8,4C,C3,00,00,00,00,00,DD,
26179901,0000046E,false,Rx,0,6,8C,A1,4C,A2,CC,A9,00,00,
26180709,0000047E,false,Rx,0,6,8C,A8,0C,A8,0C,A7,00,00,
26181713,000007EE,false,Rx,0,8,40,00,00,00,00,00,00,0F,
26196705,00000200,false,Rx,0,3,D2,36,00,00,00,00,00,00,
26294545,00000460,false,Rx,0,6,8B,0E,1B,0D,BB,16,00,00,
26295333,00000470,false,Rx,0,6,8B,17,0B,16,0B,17,00,00,
26296348,000007E0,false,Rx,0,8,CC,B0,00,00,00,00,00,BF,
26300951,00000461,false,Rx,0,8,8B,09,1B,0B,BB,12,0B,14,
26301850,00000471,false,Rx,0,8,8B,13,0B,13,0B,12,0B,12,
26302866,00000300,false,Rx,0,8,00,00,00,00,00,00,00,00,
26303839,000007E1,false,Rx,0,8,CC,A4,00,00,00,00,00,B4,
26304621,00000310,false,Rx,0,5,00,00,00,00,00,00,00,00,
26311231,00000463,false,Rx,0,8,8B,0E,1B,10,BB,1C,0B,1D,
26312121,00000473,false,Rx,0,8,8B,1B,0B,1A,0B,1B,0B,1C,
26313117,000007E3,false,Rx,0,8,C0,00,00,00,00,00,00,06,
26316049,00000464,false,Rx,0,8,8C,C5,1C,C7,BC,D4,0C,D3,
26316958,00000474,false,Rx,0,8,8C,D4,0C,D4,0C,D3,0C,D3,
26317922,000007E4,false,Rx,0,8,CC,B4,00,00,00,00,00,C7,
26326299,00000466,false,Rx,0,8,8C,6E,1C,6F,BC,78,0C,7A,
26327189,00000476,false,Rx,0,8,8C,79,0C,7A,0C,79,0C,78,
26328195,000007E6,false,Rx,0,8,C0,00,00,00,00,00,00,09,
26350761,00000468,false,Rx,0,8,8C,A3,1C,A4,BC,A9,0C,AA,
26351671,00000478,false,Rx,0,8,8C,A9,0C,A8,0C,AA,0C,AB,
26352638,000007E8,false,Rx,0,8,CC,92,00,00,00,00,00,A9,
26361422,0000046A,false,Rx,0,8,8C,AF,1C,B3,BC,B6,0C,B9,
26362332,0000047A,false,Rx,0,8,8C,B6,0C,B8,0C,B6,0C,B9,
26363327,000007EA,false,Rx,0,8,C0,00,00,00,00,00,00,0D,
26370296,0000046C,false,Rx,0,6,8B,10,1B,11,BB,1B,00,00,
26371074,0000047C,false,Rx,0,6,8B,1B,0B,1C,0B,1C,00,00,
26372079,000007EC,false,Rx,0,8,CC,BB,00,00,00,00,00,D6,
26374407,0000046D,false,Rx,0,6,8C,99,1C,98,BC,A2,00,00,
26375216,0000047D,false,Rx,0,6,8C,9F,0C,A0,0C,9F,00,00,
26376210,000007ED,false,Rx,0,8,CC,C2,00,00,00,00,00,DE,
26379885,0000046E,false,Rx,0,6,8C,A1,1C,A1,BC,A9,00,00,
26380683,0000047E,false,Rx,0,6,8C,A9,0C,A8,0C,A7,00,00,
26381718,000007EE,false,Rx,0,8,C0,00,00,00,00,00,00,11,
26396721,00000200,false,Rx,0,3,52,59,00,00,00,00,00,00,
26494563,00000460,false,Rx,0,6,8B,0E,6B,0D,FB,16,00,00,
26495331,00000470,false,Rx,0,6,8B,17,0B,16,0B,18,00,00,
26496346,000007E0,false,Rx,0,8,4C,B0,00,00,00,00,00,BD,
26500958,00000461,false,Rx,0,8,8B,09,6B,09,FB,10,0B,12,
26501868,00000471,false,Rx,0,8,8B,10,0B,11,0B,10,0B,11,
26502883,00000300,false,Rx,0,8,00,00,00,00,00,00,00,00,
26503835,000007E1,false,Rx,0,8,4C,A4,00,00,00,00,00,B2,
26504628,00000310,false,Rx,0,5,00,00,00,00,00,00,00,00,
26511238,00000463,false,Rx,0,8,8B,0F,6B,13,FB,1A,0B,1B,
26512148,00000473,false,Rx,0,8,8B,1B,0B,1B,0B,1C,0B,19,
26513133,000007E3,false,Rx,0,8,40,00,00,00,00,00,00,04,
26516055,00000464,false,Rx,0,8,8C,C6,6C,C6,FC,D4,0C,D4,
26516965,00000474,false,Rx,0,8,8C,D3,0C,D4,0C,D3,0C,D2,
26517939,000007E4,false,Rx,0,8,4C,B4,00,00,00,00,00,C5,
26526305,00000466,false,Rx,0,8,8C,6E,6C,6C,FC,77,0C,77,
26527195,00000476,false,Rx,0,8,8C,77,0C,77,0C,77,0C,78,
26528179,000007E6,false,Rx,0,8,40,00,00,00,00,00,00,07,
26550785,00000468,false,Rx,0,8,8C,A3,6C,A5,FC,A9,0C,AA,
26551685,00000478,false,Rx,0,8,8C,A9,0C,A7,0C,AA,0C,AB,
26552659,000007E8,false,Rx,0,8,4C,92,00,00,00,00,00,A7,
26561423,0000046A,false,Rx,0,8,8C,B2,6C,B2,FC,B5,0C,B8,
26562314,0000047A,false,Rx,0,8,8C,B8,0C,B5,0C,B9,0C,B8,
26563300,000007EA,false,Rx,0,8,40,00,00,00,00,00,00,0B,
26570290,0000046C,false,Rx,0,6,8B,11,6B,12,FB,1B,00,00,
26571078,0000047C,false,Rx,0,6,8B,1B,0B,1C,0B,1C,00,00,
26572083,000007EC,false,Rx,0,8,4C,BB,00,00,00,00,00,D4,
26574432,0000046D,false,Rx,0,6,8C,99,6C,98,FC,A1,00,00,
26575230,0000047D,false,Rx,0,6,8C,A0,0C,9F,0C,A0,00,00,
26576226,000007ED,false,Rx,0,8,4C,C2,00,00,00,00,00,DC,
26579921,0000046E,false,Rx,0,6,8C,A0,6C,A1,FC,A9,00,00,
26580708,0000047E,false,Rx,0,6,8C,A9,0C,A9,0C,A8,00,00,
26581734,000007EE,false,Rx,0,8,40,00,00,00,00,00,00,0F,
26596745,00000200,false,Rx,0,3,D2,6D,00,00,00,00,00,00,
26694607,00000460,false,Rx,0,6,8B,0E,0B,0D,BB,15,00,00,
26695406,00000470,false,Rx,0,6,8B,17,0B,16,0B,17,00,00,
26696410,000007E0,false,Rx,0,8,CC,B0,00,00,00,00,00,BF,
26700983,00000461,false,Rx,0,8,8B,09,0B,08,BB,10,0B,12,
26701871,00000471,false,Rx,0,8,8B,11,0B,11,0B,11,0B,13,
26702887,00000300,false,Rx,0,8,00,00,00,00,00,00,00,00,
26703859,000007E1,false,Rx,0,8,CC,A4,00,00,00,00,00,B4,
26704642,00000310,false,Rx,0,5,00,00,00,00,00,00,00,00,
26711273,00000463,false,Rx,0,8,8B,0F,0B,12,BB,1B,0B,1A,
26712183,00000473,false,Rx,0,8,8B,1C,0B,1C,0B,1B,0B,1C,
26713177,000007E3,false,Rx,0,8,C0,00,00,00,00,00,00,06,
26716079,00000464,false,Rx,0,8,8C,C5,0C,C6,BC,D4,0C,D4,
26716999,00000474,false,Rx,0,8,8C,D4,0C,D5,0C,D4,0C,D2,
26717962,000007E4,false,Rx,0,8,CC,B4,00,00,00,00,00,C7,
26726350,00000466,false,Rx,0,8,8C,70,0C,6F,BC,78,0C,77,
26727259,00000476,false,Rx,0,8,8C,78,0C,7A,0C,77,0C,76,
26728255,000007E6,false,Rx,0,8,C0,00,00,00,00,00,00,09,
26750820,00000468,false,Rx,0,8,8C,A3,0C,A3,BC,AA,0C,AA,
26751730,00000478,false,Rx,0,8,8C,AA,0C,A9,0C,AA,0C,AB,
26752696,000007E8,false,Rx,0,8,CC,92,00,00,00,00,00,A9,
26761469,0000046A,false,Rx,0,8,8C,B2,0C,B2,BC,B7,0C,B9,
26762389,0000047A,false,Rx,0,8,8C,B6,0C,B8,0C,B8,0C,B7,
26763383,000007EA,false,Rx,0,8,C0,00,00,00,00,00,00,0D,
26770313,0000046C,false,Rx,0,6,8B,11,0B,12,BB,1B,00,00,
26771111,0000047C,false,Rx,0,6,8B,1B,0B,1C,0B,1C,00,00,
26772127,000007EC,false,Rx,0,8,CC,BB,00,00,00,00,00,D6,
26774487,0000046D,false,Rx,0,6,8C,98,0C,98,BC,A1,00,00,
26775275,0000047D,false,Rx,0,6,8C,A0,0C,A0,0C,A1,00,00,
26776279,000007ED,false,Rx,0,8,CC,C2,00,00,00,00,00,DE,
26779933,0000046E,false,Rx,0,6,8C,A1,0C,A2,BC,A8,00,00,
26780739,0000047E,false,Rx,0,6,8C,A7,0C,A8,0C,A8,00,00,
26781764,000007EE,false,Rx,0,8,C0,00,00,00,00,00,00,11,
26796756,00000200,false,Rx,0,3,52,9C,00,00,00,00,00,00,
26894590,00000460,false,Rx,0,6,8B,0D,9B,0D,4B,16,00,00,
26895388,00000470,false,Rx,0,6,8B,16,0B,16,0B,18,00,00,
26896393,000007E0,false,Rx,0,8,4C,B0,00,00,00,00,00,BD,
26901007,00000461,false,Rx,0,8,8B,08,9B,09,4B,11,0B,13,
26901925,00000471,false,Rx,0,8,8B,12,0B,13,0B,12,0B,14,
26902930,00000300,false,Rx,0,8,00,00,00,00,00,00,00,00,
26903893,000007E1,false,Rx,0,8,4C,A4,00,00,00,00,00,B2,
26904676,00000310,false,Rx,0,5,00,00,00,00,00,00,00,00,
26911286,00000463,false,Rx,0,8,8B,0F,9B,12,4B,1B,0B,1A,
26912176,00000473,false,Rx,0,8,8B,1C,0B,1D,0B,1B,0B,1C,
26913170,000007E3,false,Rx,0,8,40,00,00,00,00,00,00,04,
26916104,00000464,false,Rx,0,8,8C,C5,9C,C6,4C,D4,0C,D4,
26917013,00000474,false,Rx,0,8,8C,D4,0C,D5,0C,D3,0C,D3,
26917989,000007E4,false,Rx,0,8,4C,B4,00,00,00,00,00,C5,
26926354,00000466,false,Rx,0,8,8C,6D,9C,6F,4C,7A,0C,79,
26927264,00000476,false,Rx,0,8,8C,76,0C,77,0C,78,0C,79,
26928249,000007E6,false,Rx,0,8,40,00,00,00,00,00,00,07,
26950813,00000468,false,Rx,0,8,8C,A2,9C,A4,4C,A9,0C,AB,
26951724,00000478,false,Rx,0,8,8C,A9,0C,A9,0C,AA,0C,AC,
26952689,000007E8,false,Rx,0,8,4C,92,00,00,00,00,00,A7,
26961482,0000046A,false,Rx,0,8,8C,B0,9C,B2,4C,B8,0C,B7,
26962383,0000047A,false,Rx,0,8,8C,B9,0C,B6,0C,B9,0C,B7,
26963367,000007EA,false,Rx,0,8,40,00,00,00,00,00,00,0B,
26970336,0000046C,false,Rx,0,6,8B,11,9B,12,4B,1B,00,00,
26971144,0000047C,false,Rx,0,6,8B,1C,0B,1C,0B,1C,00,00,
26972138,000007EC,false,Rx,0,8,4C,BA,00,00,00,00,00,D3,
26974467,0000046D,false,Rx,0,6,8C,9A,9C,96,4C,A2,00,00,
26975275,0000047D,false,Rx,0,6,8C,9E,0C,A1,0C,9F,00,00,
26976270,000007ED,false,Rx,0,8,4C,C2,00,00,00,00,00,DC,
26979954,0000046E,false,Rx,0,6,8C,A1,9C,A3,4C,A8,00,00,
26980752,0000047E,false,Rx,0,6,8C,A8,0C,A7,0C,A8,00,00,
26981768,000007EE,false,Rx,0,8,40,00,00,00,00,00,00,0F,
26996779,00000200,false,Rx,0,3,D2,AF,00,00,00,00,00,00,
27094620,00000460,false,Rx,0,6,8B,0E,4B,0D,5B,15,00,00,
27095418,00000470,false,Rx,0,6,8B,17,0B,16,0B,17,00,00,
27096422,000007E0,false,Rx,0,8,CC,B0,00,00,00,00,00,BF,
27101016,00000461,false,Rx,0,8,8B,09,4B,0A,5B,13,0B,15,
27101914,00000471,false,Rx,0,8,8B,13,0B,13,0B,11,0B,11,
27102920,00000300,false,Rx,0,8,00,00,00,00,00,00,00,00,
27103893,000007E1,false,Rx,0,8,CC,A4,00,00,00,00,00,B4,
27104676,00000310,false,Rx,0,5,00,00,00,00,00,00,00,00,
27111306,00000463,false,Rx,0,8,8B,0E,4B,11,5B,1D,0B,1A,
27112197,00000473,false,Rx,0,8,8B,1A,0B,1D,0B,1D,0B,1A,
27113192,000007E3,false,Rx,0,8,C0,00,00,00,00,00,00,06,
27116135,00000464,false,Rx,0,8,8C,C5,4C,C6,5C,D4,0C,D3,
27117036,00000474,false,Rx,0,8,8C,D3,0C,D5,0C,D3,0C,D3,
27118010,000007E4,false,Rx,0,8,CC,B4,00,00,00,00,00,C7,
27126376,00000466,false,Rx,0,8,8C,6F,4C,6E,5C,76,0C,79,
27127266,00000476,false,Rx,0,8,8C,79,0C,79,0C,78,0C,76,
27128272,000007E6,false,Rx,0,8,C0,00,00,00,00,00,00,09,
27150849,00000468,false,Rx,0,8,8C,A2,4C,A3,5C,AA,0C,A9,
27151759,00000478,false,Rx,0,8,8C,A9,0C,A9,0C,AA,0C,AB,
27152723,000007E8,false,Rx,0,8,CC,92,00,00,00,00,00,A9,
27161497,0000046A,false,Rx,0,8,8C,AF,4C,B4,5C,B5,0C,B9,
27162397,0000047A,false,Rx,0,8,8C,B7,0C,B8,0C,B8,0C,B7,
27163391,000007EA,false,Rx,0,8,C0,00,00,00,00,00,00,0D,
27170370,0000046C,false,Rx,0,6,8B,10,4B,11,5B,1B,00,00,
27171148,0000047C,false,Rx,0,6,8B,1B,0B,1B,0B,1B,00,00,
27172153,000007EC,false,Rx,0,8,CC,BB,00,00,00,00,00,D6,
27174523,0000046D,false,Rx,0,6,8C,9A,4C,97,5C,A1,00,00,
27175311,0000047D,false,Rx,0,6,8C,9F,0C,A1,0C,9E,00,00,
27176315,000007ED,false,Rx,0,8,CC,C2,00,00,00,00,00,DE,
27179970,0000046E,false,Rx,0,6,8C,A1,4C,A2,5C,A9,00,00,
27180778,0000047E,false,Rx,0,6,8C,A8,0C,A8,0C,A7,00,00,
27181803,000007EE,false,Rx,0,8,C0,00,00,00,00,00,00,11,
27196795,00000200,false,Rx,0,3,52,C0,00,00,00,00,00,00,
27294653,00000460,false,Rx,0,6,8B,0E,AB,0D,DB,15,00,00,
27295441,00000470,false,Rx,0,6,8B,16,0B,16,0B,17,00,00,
27296457,000007E0,false,Rx,0,8,4C,B0,00,00,00,00,00,BD,
27301060,00000461,false,Rx,0,8,8B,0A,AB,0A,DB,12,0B,13,
27301959,00000471,false,Rx,0,8,8B,10,0B,11,0B,10,0B,12,
27302963,00000300,false,Rx,0,8,00,00,00,00,00,00,00,00,
27303926,000007E1,false,Rx,0,8,4C,A4,00,00,00,00,00,B2,
27304708,00000310,false,Rx,0,5,00,00,00,00,00,00,00,00,
27311340,00000463,false,Rx,0,8,8B,12,AB,11,DB,19,0B,1A,
27312239,00000473,false,Rx,0,8,8B,1C,0B,1C,0B,1B,0B,19,
27313234,000007E3,false,Rx,0,8,40,00,00,00,00,00,00,04,
27316156,00000464,false,Rx,0,8,8C,C5,AC,C7,DC,D4,0C,D3,
27317076,00000474,false,Rx,0,8,8C,D4,0C,D5,0C,D4,0C,D3,
27318051,000007E4,false,Rx,0,8,4C,B4,00,00,00,00,00,C5,
27326417,00000466,false,Rx,0,8,8C,6E,AC,6F,DC,7A,0C,7A,
27327316,00000476,false,Rx,0,8,8C,77,0C,77,0C,78,0C,79,
27328301,000007E6,false,Rx,0,8,40,00,00,00,00,00,00,07,
27350877,00000468,false,Rx,0,8,8C,A2,AC,A3,DC,A9,0C,A9,
27351788,00000478,false,Rx,0,8,8C,A9,0C,A8,0C,AA,0C,AB,
27352752,000007E8,false,Rx,0,8,4C,92,00,00,00,00,00,A7,
27361525,0000046A,false,Rx,0,8,8C,B1,AC,B2,DC,B7,0C,B8,
27362435,0000047A,false,Rx,0,8,8C,B8,0C,B6,0C,B7,0C,B7,
27363420,000007EA,false,Rx,0,8,40,00,00,00,00,00,00,0B,
27370389,0000046C,false,Rx,0,6,8B,10,AB,11,DB,1B,00,00,
27371177,0000047C,false,Rx,0,6,8B,1B,0B,1B,0B,1B,00,00,
27372192,000007EC,false,Rx,0,8,4C,BA,00,00,00,00,00,D3,
27374531,0000046D,false,Rx,0,6,8C,99,AC,97,DC,A1,00,00,
27375329,0000047D,false,Rx,0,6,8C,A0,0C,A0,0C,A0,00,00,
27376334,000007ED,false,Rx,0,8,4C,C3,00,00,00,00,00,DD,
27380019,0000046E,false,Rx,0,6,8C,A0,AC,A1,DC,A9,00,00,
27380806,0000047E,false,Rx,0,6,8C,A9,0C,A8,0C,A8,00,00,
27381832,000007EE,false,Rx,0,8,40,00,00,00,00,00,00,0F,
27396803,00000200,false,Rx,0,3,D2,F3,00,00,00,00,00,00,
27494656,00000460,false,Rx,0,6,8B,0E,8B,0D,3B,15,00,00,
27495444,00000470,false,Rx,0,6,8B,16,0B,16,0B,17,00,00,
27496468,000007E0,false,Rx,0,8,CC,B0,00,00,00,00,00,BF,
27501072,00000461,false,Rx,0,8,8B,09,8B,0A,3B,12,0B,14,
27501960,00000471,false,Rx,0,8,8B,13,0B,13,0B,12,0B,13,
27502975,00000300,false,Rx,0,8,00,00,00,00,00,00,00,00,
27503949,000007E1,false,Rx,0,8,CC,A4,00,00,00,00,00,B4,
27504731,00000310,false,Rx,0,5,00,00,00,00,00,00,00,00,
27511361,00000463,false,Rx,0,8,8B,11,8B,10,3B,1C,0B,1B,
27512272,00000473,false,Rx,0,8,8B,1B,0B,1C,0B,1A,0B,1C,
27513257,000007E3,false,Rx,0,8,C0,00,00,00,00,00,00,06,
27516158,00000464,false,Rx,0,8,8C,C5,8C,C6,3C,D5,0C,D4,
27517078,00000474,false,Rx,0,8,8C,D3,0C,D4,0C,D3,0C,D2,
27518042,000007E4,false,Rx,0,8,CC,B4,00,00,00,00,00,C7,
27526418,00000466,false,Rx,0,8,8C,6D,8C,6E,3C,78,0C,7A,
27527338,00000476,false,Rx,0,8,8C,7A,0C,79,0C,78,0C,77,
27528343,000007E6,false,Rx,0,8,C0,00,00,00,00,00,00,09,
27550896,00000468,false,Rx,0,8,8C,A2,8C,A4,3C,AA,0C,A9,
27551806,00000478,false,Rx,0,8,8C,A9,0C,A8,0C,AA,0C,AB,
27552770,000007E8,false,Rx,0,8,CC,92,00,00,00,00,00,A9,
27561565,0000046A,false,Rx,0,8,8C,AF,8C,B2,3C,B6,0C,B8,
27562455,0000047A,false,Rx,0,8,8C,B7,0C,B7,0C,B8,0C,B6,
27563450,000007EA,false,Rx,0,8,C0,00,00,00,00,00,00,0D,
27570419,0000046C,false,Rx,0,6,8B,10,8B,11,3B,1A,00,00,
27571208,0000047C,false,Rx,0,6,8B,1B,0B,1C,0B,1C,00,00,
27572223,000007EC,false,Rx,0,8,CC,BB,00,00,00,00,00,D6,
27574553,0000046D,false,Rx,0,6,8C,99,8C,97,3C,A1,00,00,
27575361,0000047D,false,Rx,0,6,8C,A0,0C,A0,0C,9F,00,00,
27576365,000007ED,false,Rx,0,8,CC,C2,00,00,00,00,00,DE,
27580010,0000046E,false,Rx,0,6,8C,A1,8C,A2,3C,A9,00,00,
27580807,0000047E,false,Rx,0,6,8C,A9,0C,A8,0C,A9,00,00,
27581842,000007EE,false,Rx,0,8,C0,00,00,00,00,00,00,11,
27596813,00000200,false,Rx,0,3,52,05,00,00,00,00,00,00,
27694624,00000460,false,Rx,0,6,8B,0E,4B,0E,CB,15,00,00,
27695432,00000470,false,Rx,0,6,8B,17,0B,16,0B,17,00,00,
27696426,000007E0,false,Rx,0,8,4C,B0,00,00,00,00,00,BD,
27701041,00000461,false,Rx,0,8,8B,08,4B,08,CB,10,0B,12,
27701939,00000471,false,Rx,0,8,8B,11,0B,10,0B,10,0B,11,
27702946,00000300,false,Rx,0,8,00,00,00,00,00,00,00,00,
27703908,000007E1,false,Rx,0,8,4C,A4,00,00,00,00,00,B2,
27704690,00000310,false,Rx,0,5,00,00,00,00,00,00,00,00,
27711321,00000463,false,Rx,0,8,8B,10,4B,10,CB,1C,0B,1B,
27712220,00000473,false,Rx,0,8,8B,1A,0B,1D,0B,1B,0B,1B,
27713215,000007E3,false,Rx,0,8,40,00,00,00,00,00,00,04,
27716138,00000464,false,Rx,0,8,8C,C6,4C,C6,CC,D5,0C,D4,
27717037,00000474,false,Rx,0,8,8C,D3,0C,D5,0C,D3,0C,D3,
27718012,000007E4,false,Rx,0,8,4C,B4,00,00,00,00,00,C5,
27726377,00000466,false,Rx,0,8,8C,6E,4C,6D,CC,77,0C,78,
27727267,00000476,false,Rx,0,8,8C,78,0C,79,0C,79,0C,78,
27728252,000007E6,false,Rx,0,8,40,00,00,00,00,00,00,07,
27750849,00000468,false,Rx,0,8,8C,A3,4C,A4,CC,A9,0C,AA,
27751769,00000478,false,Rx,0,8,8C,A9,0C,A8,0C,AA,0C,AB,
27752734,000007E8,false,Rx,0,8,4C,92,00,00,00,00,00,A7,
27761497,0000046A,false,Rx,0,8,8C,B2,4C,B0,CC,B9,0C,B9,
27762427,0000047A,false,Rx,0,8,8C,B6,0C,B8,0C,B8,0C,B5,
27763403,000007EA,false,Rx,0,8,40,00,00,00,00,00,00,0B,
27770372,0000046C,false,Rx,0,6,8B,10,4B,11,CB,1B,00,00,
27771159,0000047C,false,Rx,0,6,8B,1B,0B,1C,0B,1C,00,00,
27772174,000007EC,false,Rx,0,8,4C,BA,00,00,00,00,00,D3,
27774544,0000046D,false,Rx,0,6,8C,99,4C,97,CC,A1,00,00,
27775323,0000047D,false,Rx,0,6,8C,A1,0C,A1,0C,9F,00,00,
27776329,000007ED,false,Rx,0,8,4C,C2,00,00,00,00,00,DC,
27779985,0000046E,false,Rx,0,6,8C,A1,4C,A3,CC,A9,00,00,
27780779,0000047E,false,Rx,0,6,8C,A8,0C,A9,0C,A9,00,00,
27781804,000007EE,false,Rx,0,8,40,00,00,00,00,00,00,0F,
27796838,00000200,false,Rx,0,3,D2,36,00,00,00,00,00,00,
27894648,00000460,false,Rx,0,6,8B,0F,1B,0D,BB,15,00,00,
27895436,00000470,false,Rx,0,6,8B,16,0B,16,0B,17,00,00,
27896462,000007E0,false,Rx,0,8,CC,B0,00,00,00,00,00,BF,
27901065,00000461,false,Rx,0,8,8B,08,1B,09,BB,11,0B,12,
27901974,00000471,false,Rx,0,8,8B,12,0B,13,0B,12,0B,14,
27902990,00000300,false,Rx,0,8,00,00,00,00,00,00,00,00,
27903962,000007E1,false,Rx,0,8,CC,A4,00,00,00,00,00,B4,
27904745,00000310,false,Rx,0,5,00,00,00,00,00,00,00,00,
27911354,00000463,false,Rx,0,8,8B,10,1B,10,BB,1C,0B,1C,
27912254,00000473,false,Rx,0,8,8B,1A,0B,1C,0B,1B,0B,1A,
27913249,000007E3,false,Rx,0,8,C0,00,00,00,00,00,00,06,
27916171,00000464,false,Rx,0,8,8C,C5,1C,C6,BC,D4,0C,D4,
27917092,00000474,false,Rx,0,8,8C,D4,0C,D4,0C,D3,0C,D2,
27918056,000007E4,false,Rx,0,8,CC,B4,00,00,00,00,00,C7,
27926421,00000466,false,Rx,0,8,8C,6E,1C,6F,BC,7A,0C,7B,
27927331,00000476,false,Rx,0,8,8C,79,0C,79,0C,7A,0C,79,
27928325,000007E6,false,Rx,0,8,C0,00,00,00,00,00,00,09,
27950892,00000468,false,Rx,0,8,8C,A2,1C,A3,BC,AA,0C,AA,
27951802,00000478,false,Rx,0,8,8C,AA,0C,A7,0C,AA,0C,AB,
27952767,000007E8,false,Rx,0,8,CC,92,00,00,00,00,00,A9,
27961532,0000046A,false,Rx,0,8,8C,B3,1C,B2,BC,B8,0C,B9,
27962431,0000047A,false,Rx,0,8,8C,B6,0C,B9,0C,B7,0C,B6,
27963426,000007EA,false,Rx,0,8,C0,00,00,00,00,00,00,0D,
27970417,0000046C,false,Rx,0,6,8B,10,1B,11,BB,1B,00,00,
27971205,0000047C,false,Rx,0,6,8B,1B,0B,1C,0B,1C,00,00,
27972199,000007EC,false,Rx,0,8,CC,BA,00,00,00,00,00,D5,
27974529,0000046D,false,Rx,0,6,8C,99,1C,97,BC,A2,00,00,
27975358,0000047D,false,Rx,0,6,8C,9F,0C,9F,0C,A0,00,00,
27976332,000007ED,false,Rx,0,8,CC,C2,00,00,00,00,00,DE,
27980028,0000046E,false,Rx,0,6,8C,A2,1C,A2,BC,A9,00,00,
27980825,0000047E,false,Rx,0,6,8C,A8,0C,A8,0C,A8,00,00,
27981839,000007EE,false,Rx,0,8,C0,00,00,00,00,00,00,11,
27996841,00000200,false,Rx,0,3,52,59,00,00,00,00,00,00,
28094682,00000460,false,Rx,0,6,8B,0E,6B,0D,FB,16,00,00,
28095461,00000470,false,Rx,0,6,8B,17,0B,17,0B,17,00,00,
28096465,000007E0,false,Rx,0,8,4C,B0,00,00,00,00,00,BD,
28101069,00000461,false,Rx,0,8,8B,09,6B,0A,FB,13,0B,14,
28101967,00000471,false,Rx,0,8,8B,11,0B,11,0B,10,0B,13,
28102973,00000300,false,Rx,0,8,00,00,00,00,00,00,00,00,
28103935,000007E1,false,Rx,0,8,4C,A4,00,00,00,00,00,B2,
28104718,00000310,false,Rx,0,5,00,00,00,00,00,00,00,00,
28111370,00000463,false,Rx,0,8,8B,10,6B,12,FB,1B,0B,1A,
28112270,00000473,false,Rx,0,8,8B,1C,0B,1D,0B,1B,0B,19,
28113264,000007E3,false,Rx,0,8,40,00,00,00,00,00,00,04,
28116186,00000464,false,Rx,0,8,8C,C5,6C,C7,FC,D4,0C,D5,
28117086,00000474,false,Rx,0,8,8C,D3,0C,D5,0C,D4,0C,D2,
28118061,000007E4,false,Rx,0,8,4C,B4,00,00,00,00,00,C5,
28126436,00000466,false,Rx,0,8,8C,6F,6C,6F,FC,79,0C,79,
28127346,00000476,false,Rx,0,8,8C,78,0C,78,0C,78,0C,78,
28128331,000007E6,false,Rx,0,8,40,00,00,00,00,00,00,07,
28150907,00000468,false,Rx,0,8,8C,A3,6C,A3,FC,AA,0C,A9,
28151817,00000478,false,Rx,0,8,8C,AB,0C,A8,0C,AA,0C,AA,
28152783,000007E8,false,Rx,0,8,4C,92,00,00,00,00,00,A7,
28161545,0000046A,false,Rx,0,8,8C,AF,6C,B2,FC,B7,0C,B8,
28162455,0000047A,false,Rx,0,8,8C,B8,0C,B5,0C,BA,0C,B5,
28163439,000007EA,false,Rx,0,8,40,00,00,00,00,00,00,0B,
28170431,0000046C,false,Rx,0,6,8B,11,6B,11,FB,1A,00,00,
28171209,0000047C,false,Rx,0,6,8B,1B,0B,1C,0B,1C,00,00,
28172213,000007EC,false,Rx,0,8,4C,BB,00,00,00,00,00,D4,
28174593,0000046D,false,Rx,0,6,8C,98,6C,97,FC,A0,00,00,
28175381,0000047D,false,Rx,0,6,8C,9F,0C,A1,0C,9E,00,00,
28176365,000007ED,false,Rx,0,8,4C,C2,00,00,00,00,00,DC,
28180031,0000046E,false,Rx,0,6,8C,A1,6C,A1,FC,A8,00,00,
28180838,0000047E,false,Rx,0,6,8C,A8,0C,A8,0C,A8,00,00,
28181852,000007EE,false,Rx,0,8,40,00,00,00,00,00,00,0F,
28196855,00000200,false,Rx,0,3,D2,6D,00,00,00,00,00,00,
28294735,00000460,false,Rx,0,6,8B,0E,0B,0D,BB,16,00,00,
28295523,00000470,false,Rx,0,6,8B,17,0B,16,0B,17,00,00,
28296528,000007E0,false,Rx,0,8,CC,B0,00,00,00,00,00,BF,
28301092,00000461,false,Rx,0,8,8B,09,0B,09,BB,11,0B,12,
28301991,00000471,false,Rx,0,8,8B,11,0B,12,0B,12,0B,13,
28303006,00000300,false,Rx,0,8,00,00,00,00,00,00,00,00,
28303979,000007E1,false,Rx,0,8,CC,A4,00,00,00,00,00,B4,
28304760,00000310,false,Rx,0,5,00,00,00,00,00,00,00,00,
28311392,00000463,false,Rx,0,8,8B,11,0B,10,BB,1A,0B,1B,
28312302,00000473,false,Rx,0,8,8B,1C,0B,1B,0B,1A,0B,1B,
28313297,000007E3,false,Rx,0,8,C0,00,00,00,00,00,00,06,
28316209,00000464,false,Rx,0,8,8C,C5,0C,C6,BC,D4,0C,D4,
28317110,00000474,false,Rx,0,8,8C,D4,0C,D5,0C,D3,0C,D2,
28318074,000007E4,false,Rx,0,8,CC,B4,00,00,00,00,00,C7,
28326470,00000466,false,Rx,0,8,8C,70,0C,6F,BC,76,0C,79,
28327370,00000476,false,Rx,0,8,8C,79,0C,77,0C,76,0C,79,
28328375,000007E6,false,Rx,0,8,C0,00,00,00,00,00,00,09,
28350932,00000468,false,Rx,0,8,8C,A2,0C,A3,BC,AA,0C,AA,
28351862,00000478,false,Rx,0,8,8C,AA,0C,A8,0C,AA,0C,AB,
28352826,000007E8,false,Rx,0,8,CC,92,00,00,00,00,00,A9,
28361579,0000046A,false,Rx,0,8,8C,B0,0C,B2,BC,B9,0C,B7,
28362480,0000047A,false,Rx,0,8,8C,B9,0C,B5,0C,B9,0C,B7,
28363465,000007EA,false,Rx,0,8,C0,00,00,00,00,00,00,0D,
28370454,0000046C,false,Rx,0,6,8B,10,0B,12,BB,1B,00,00,
28371232,0000047C,false,Rx,0,6,8B,1C,0B,1B,0B,1C,00,00,
28372237,000007EC,false,Rx,0,8,CC,BA,00,00,00,00,00,D5,
28374576,0000046D,false,Rx,0,6,8C,99,0C,97,BC,A2,00,00,
28375384,0000047D,false,Rx,0,6,8C,A0,0C,9F,0C,9F,00,00,
28376370,000007ED,false,Rx,0,8,CC,C2,00,00,00,00,00,DE,
28380055,0000046E,false,Rx,0,6,8C,A1,0C,A1,BC,A8,00,00,
28380852,0000047E,false,Rx,0,6,8C,A9,0C,A8,0C,A8,00,00,
28381888,000007EE,false,Rx,0,8,C0,00,00,00,00,00,00,11,
28396879,00000200,false,Rx,0,3,52,9C,00,00,00,00,00,00,
28494751,00000460,false,Rx,0,6,8B,0F,9B,0D,4B,16,00,00,
28495539,00000470,false,Rx,0,6,8B,17,0B,16,0B,17,00,00,
28496543,000007E0,false,Rx,0,8,4C,B0,00,00,00,00,00,BD,
28501116,00000461,false,Rx,0,8,8B,08,9B,09,4B,11,0B,12,
28502026,00000471,false,Rx,0,8,8B,10,0B,11,0B,10,0B,12,
28503031,00000300,false,Rx,0,8,00,00,00,00,00,00,00,00,
28503994,000007E1,false,Rx,0,8,4C,A4,00,00,00,00,00,B2,
28504775,00000310,false,Rx,0,5,00,00,00,00,00,00,00,00,
28511406,00000463,false,Rx,0,8,8B,0E,9B,12,4B,1A,0B,1B,
28512296,00000473,false,Rx,0,8,8B,1C,0B,1B,0B,1D,0B,1A,
28513291,000007E3,false,Rx,0,8,40,00,00,00,00,00,00,04,
28516213,00000464,false,Rx,0,8,8C,C5,9C,C6,4C,D5,0C,D4,
28517123,00000474,false,Rx,0,8,8C,D4,0C,D5,0C,D2,0C,D3,
28518097,000007E4,false,Rx,0,8,4C,B4,00,00,00,00,00,C5,
28526473,00000466,false,Rx,0,8,8C,6E,9C,70,4C,79,0C,77,
28527383,00000476,false,Rx,0,8,8C,77,0C,7A,0C,7A,0C,78,
28528368,000007E6,false,Rx,0,8,40,00,00,00,00,00,00,07,
28550953,00000468,false,Rx,0,8,8C,A3,9C,A3,4C,AA,0C,AA,
28551873,00000478,false,Rx,0,8,8C,AA,0C,A7,0C,AA,0C,AB,
28552837,000007E8,false,Rx,0,8,4C,92,00,00,00,00,00,A7,
28561611,0000046A,false,Rx,0,8,8C,B1,9C,B1,4C,B8,0C,B7,
28562522,0000047A,false,Rx,0,8,8C,B8,0C,B6,0C,B7,0C,B6,
28563506,000007EA,false,Rx,0,8,40,00,00,00,00,00,00,0B,
28570465,0000046C,false,Rx,0,6,8B,11,9B,12,4B,1A,00,00,
28571243,0000047C,false,Rx,0,6,8B,1C,0B,1B,0B,1C,00,00,
28572259,000007EC,false,Rx,0,8,4C,BA,00,00,00,00,00,D3,
28574578,0000046D,false,Rx,0,6,8C,99,9C,97,4C,A1,00,00,
28575386,0000047D,false,Rx,0,6,8C,A0,0C,9F,0C,A1,00,00,
28576390,000007ED,false,Rx,0,8,4C,C2,00,00,00,00,00,DC,
28580077,0000046E,false,Rx,0,6,8C,A1,9C,A2,4C,A7,00,00,
28580873,0000047E,false,Rx,0,6,8C,A8,0C,A9,0C,A8,00,00,
28581898,000007EE,false,Rx,0,8,40,00,00,00,00,00,00,0F,
28596890,00000200,false,Rx,0,3,D2,AF,00,00,00,00,00,00,
28694732,00000460,false,Rx,0,6,8B,0F,4B,0D,5B,16,00,00,
28695510,00000470,false,Rx,0,6,8B,17,0B,17,0B,17,00,00,
28696536,000007E0,false,Rx,0,8,CC,B0,00,00,00,00,00,BF,
28701140,00000461,false,Rx,0,8,8B,0A,4B,0A,5B,13,0B,13,
28702029,00000471,false,Rx,0,8,8B,11,0B,11,0B,10,0B,12,
28703044,00000300,false,Rx,0,8,00,00,00,00,00,00,00,00,
28704016,000007E1,false,Rx,0,8,CC,A4,00,00,00,00,00,B4,
28704798,00000310,false,Rx,0,5,00,00,00,00,00,00,00,00,
28711428,00000463,false,Rx,0,8,8B,10,4B,0F,5B,1B,0B,1D,
28712318,00000473,false,Rx,0,8,8B,1A,0B,1D,0B,1B,0B,1B,
28713313,000007E3,false,Rx,0,8,C0,00,00,00,00,00,00,06,
28716245,00000464,false,Rx,0,8,8C,C5,4C,C6,5C,D4,0C,D3,
28717165,00000474,false,Rx,0,8,8C,D3,0C,D4,0C,D4,0C,D2,
28718131,000007E4,false,Rx,0,8,CC,B4,00,00,00,00,00,C7,
28726486,00000466,false,Rx,0,8,8C,6E,4C,6D,5C,78,0C,7B,
28727386,00000476,false,Rx,0,8,8C,79,0C,77,0C,76,0C,78,
28728390,000007E6,false,Rx,0,8,C0,00,00,00,00,00,00,09,
28750967,00000468,false,Rx,0,8,8C,A2,4C,A4,5C,AA,0C,AA,
28751898,00000478,false,Rx,0,8,8C,AA,0C,A8,0C,AA,0C,AB,
28752862,000007E8,false,Rx,0,8,CC,92,00,00,00,00,00,A9,
28761607,0000046A,false,Rx,0,8,8C,B2,4C,B0,5C,B9,0C,B9,
28762527,0000047A,false,Rx,0,8,8C,B7,0C,B6,0C,BA,0C,B8,
28763512,000007EA,false,Rx,0,8,C0,00,00,00,00,00,00,0D,
28770472,0000046C,false,Rx,0,6,8B,10,4B,11,5B,1B,00,00,
28771280,0000047C,false,Rx,0,6,8B,1C,0B,1C,0B,1C,00,00,
28772264,000007EC,false,Rx,0,8,CC,BA,00,00,00,00,00,D5,
28774623,0000046D,false,Rx,0,6,8C,98,4C,97,5C,A2,00,00,
28775432,0000047D,false,Rx,0,6,8C,9F,0C,A0,0C,9F,00,00,
28776437,000007ED,false,Rx,0,8,CC,C2,00,00,00,00,00,DE,
28780112,0000046E,false,Rx,0,6,8C,A1,4C,A2,5C,A9,00,00,
28780927,0000047E,false,Rx,0,6,8C,A8,0C,A8,0C,A8,00,00,
28781952,000007EE,false,Rx,0,8,C0,00,00,00,00,00,00,11,
28796912,00000200,false,Rx,0,3,52,C0,00,00,00,00,00,00,
28894776,00000460,false,Rx,0,6,8B,0E,AB,0D,DB,15,00,00,
28895544,00000470,false,Rx,0,6,8B,17,0B,16,0B,18,00,00,
28896568,000007E0,false,Rx,0,8,4C,B0,00,00,00,00,00,BD,
28901182,00000461,false,Rx,0,8,8B,09,AB,0A,DB,12,0B,13,
28902091,00000471,false,Rx,0,8,8B,11,0B,12,0B,10,0B,11,
28903097,00000300,false,Rx,0,8,00,00,00,00,00,00,00,00,
28904059,000007E1,false,Rx,0,8,4C,A4,00,00,00,00,00,B2,
28904841,00000310,false,Rx,0,5,00,00,00,00,00,00,00,00,
28911440,00000463,false,Rx,0,8,8B,10,AB,10,DB,1B,0B,1B,
28912351,00000473,false,Rx,0,8,8B,1A,0B,1D,0B,1C,0B,19,
28913335,000007E3,false,Rx,0,8,40,00,00,00,00,00,00,04,
28916279,00000464,false,Rx,0,8,8C,C5,AC,C7,DC,D5,0C,D4,
28917188,00000474,false,Rx,0,8,8C,D3,0C,D4,0C,D3,0C,D2,
28918163,000007E4,false,Rx,0,8,4C,B4,00,00,00,00,00,C5,
28926528,00000466,false,Rx,0,8,8C,6F,AC,70,DC,7B,0C,7A,
28927417,00000476,false,Rx,0,8,8C,77,0C,76,0C,77,0C,78,
28928402,000007E6,false,Rx,0,8,40,00,00,00,00,00,00,07,
28950981,00000468,false,Rx,0,8,8C,A2,AC,A4,DC,A9,0C,A9,
28951890,00000478,false,Rx,0,8,8C,A9,0C,A8,0C,AA,0C,AB,
28952865,000007E8,false,Rx,0,8,4C,92,00,00,00,00,00,A7,
28961640,0000046A,false,Rx,0,8,8C,B3,AC,B2,DC,B7,0C,BA,
28962539,0000047A,false,Rx,0,8,8C,B8,0C,B7,0C,B9,0C,B8,
28963524,000007EA,false,Rx,0,8,40,00,00,00,00,00,00,0B,
28970503,0000046C,false,Rx,0,6,8B,10,AB,11,DB,1B,00,00,
28971291,0000047C,false,Rx,0,6,8B,1B,0B,1B,0B,1B,00,00,
28972307,000007EC,false,Rx,0,8,4C,BA,00,00,00,00,00,D3,
28974667,0000046D,false,Rx,0,6,8C,99,AC,96,DC,A2,00,00,
28975466,0000047D,false,Rx,0,6,8C,A0,0C,A0,0C,A0,00,00,
28976461,000007ED,false,Rx,0,8,4C,C2,00,00,00,00,00,DC,
28980118,0000046E,false,Rx,0,6,8C,A1,AC,A2,DC,A8,00,00,
28980925,0000047E,false,Rx,0,6,8C,A8,0C,A8,0C,A8,00,00,
28981939,000007EE,false,Rx,0,8,40,00,00,00,00,00,00,0F,
28996923,00000200,false,Rx,0,3,D2,F3,00,00,00,00,00,00,
29094770,00000460,false,Rx,0,6,8B,0E,8B,0E,3B,16,00,00,
29095558,00000470,false,Rx,0,6,8B,16,0B,16,0B,17,00,00,
29096583,000007E0,false,Rx,0,8,CC,B0,00,00,00,00,00,BF,
29101176,00000461,false,Rx,0,8,8B,0A,8B,0A,3B,12,0B,14,
29102077,00000471,false,Rx,0,8,8B,11,0B,11,0B,10,0B,12,
